[xxxx-xx-xx xx:xx:xx] Witty Pi daemon (v4.13) is started.
[xxxx-xx-xx xx:xx:xx] Running on Raspberry Pi 4 Model B Rev 1.5
[xxxx-xx-xx xx:xx:xx] RTC has bad time, write system time into RTC
[xxxx-xx-xx xx:xx:xx] Writing system time to RTC...
<2023-12-11 14:56:44> Done :-)
<2023-12-11 14:56:45> Firmware ID: 0x37
<2023-12-11 14:56:45> Firmware Revison: 0x02
<2023-12-11 14:56:45> Current Vout=5.19V, Iout=0.7A
<2023-12-11 14:56:45> System starts up because USB 5V is connected.
<2023-12-11 14:56:50> Send out the SYS_UP signal via GPIO-17 pin.
[2023-12-11 14:56:50] File "schedule.wpi" not found, skip running schedule script.
<2023-12-11 14:56:50> Pending for incoming shutdown command...
[2023-12-11 15:03:19] Writing system time to RTC...
<2023-12-11 15:03:19> Done :-)
<2023-12-11 15:45:04> Shutting down system because input voltge is too low: Vin=4.18V, Vlow=4.2V
Shutting down in 20 seconds...
Good Bye Mon 11 Dec 15:45:24 GMT 2023
<2023-12-11 15:45:24> Halting all processes and then shutdown Raspberry Pi...
[xxxx-xx-xx xx:xx:xx] Witty Pi daemon (v4.13) is started.
[xxxx-xx-xx xx:xx:xx] Running on Raspberry Pi 4 Model B Rev 1.5
[xxxx-xx-xx xx:xx:xx] Seems RTC has good time, write RTC time into system
[xxxx-xx-xx xx:xx:xx] Writing RTC time to system...
[2023-12-11 15:46:07] Done :-)
[2023-12-11 15:46:07] Firmware ID: 0x37
[2023-12-11 15:46:07] Firmware Revison: 0x02
[2023-12-11 15:46:07] Current Vout=5.19V, Iout=0.64A
[2023-12-11 15:46:07] System starts up because USB 5V is connected.
[2023-12-11 15:46:12] Send out the SYS_UP signal via GPIO-17 pin.
[2023-12-11 15:46:12] File "schedule.wpi" not found, skip running schedule script.
[2023-12-11 15:46:12] Pending for incoming shutdown command...
[2023-12-11 15:48:56] Shutting down system because input voltge is too low: Vin=4.12V, Vlow=4.2V
Shutting down in 20 seconds...
Good Bye Mon 11 Dec 15:49:16 GMT 2023
[2023-12-11 15:49:16] Halting all processes and then shutdown Raspberry Pi...
[xxxx-xx-xx xx:xx:xx] Witty Pi daemon (v4.13) is started.
[xxxx-xx-xx xx:xx:xx] Running on Raspberry Pi 4 Model B Rev 1.5
[xxxx-xx-xx xx:xx:xx] Seems RTC has good time, write RTC time into system
[xxxx-xx-xx xx:xx:xx] Writing RTC time to system...
[2023-12-11 15:50:01] Done :-)
[2023-12-11 15:50:01] Firmware ID: 0x37
[2023-12-11 15:50:01] Firmware Revison: 0x02
[2023-12-11 15:50:01] Current Vin=4.18V, Vout=5.2V, Iout=0.62A
[2023-12-11 15:50:01] Unknown/incorrect startup reason: 0x04
[2023-12-11 15:50:06] Send out the SYS_UP signal via GPIO-17 pin.
[2023-12-11 15:50:06] File "schedule.wpi" not found, skip running schedule script.
[2023-12-11 15:50:06] Pending for incoming shutdown command...
[2023-12-11 15:50:08] Shutting down system because input voltge is too low: Vin=4.18V, Vlow=4.2V
Shutting down in 20 seconds...
Good Bye Mon 11 Dec 15:50:28 GMT 2023
[2023-12-11 15:50:28] Halting all processes and then shutdown Raspberry Pi...
[xxxx-xx-xx xx:xx:xx] Witty Pi daemon (v4.13) is started.
[xxxx-xx-xx xx:xx:xx] Running on Raspberry Pi 4 Model B Rev 1.5
[xxxx-xx-xx xx:xx:xx] Seems RTC has good time, write RTC time into system
[xxxx-xx-xx xx:xx:xx] Writing RTC time to system...
[2023-12-11 15:51:12] Done :-)
[2023-12-11 15:51:12] Firmware ID: 0x37
[2023-12-11 15:51:12] Firmware Revison: 0x02
[2023-12-11 15:51:12] Current Vout=5.19V, Iout=0.6A
[2023-12-11 15:51:12] System starts up because USB 5V is connected.
[2023-12-11 15:51:17] Send out the SYS_UP signal via GPIO-17 pin.
[2023-12-11 15:51:17] File "schedule.wpi" not found, skip running schedule script.
[2023-12-11 15:51:17] Pending for incoming shutdown command...
[2023-12-11 15:54:13] Shutting down system because input voltge is too low: Vin=3.63V, Vlow=4.2V
Shutting down in 20 seconds...
Good Bye Mon 11 Dec 15:54:33 GMT 2023
[2023-12-11 15:54:33] Halting all processes and then shutdown Raspberry Pi...
[xxxx-xx-xx xx:xx:xx] Witty Pi daemon (v4.13) is started.
[xxxx-xx-xx xx:xx:xx] Running on Raspberry Pi 4 Model B Rev 1.5
[xxxx-xx-xx xx:xx:xx] Seems RTC has good time, write RTC time into system
[xxxx-xx-xx xx:xx:xx] Writing RTC time to system...
[2023-12-11 15:55:10] Done :-)
[2023-12-11 15:55:10] Firmware ID: 0x37
[2023-12-11 15:55:10] Firmware Revison: 0x02
[2023-12-11 15:55:10] Current Vin=4.18V, Vout=5.19V, Iout=0.49A
[2023-12-11 15:55:10] Unknown/incorrect startup reason: 0x04
[2023-12-11 15:55:15] Send out the SYS_UP signal via GPIO-17 pin.
[2023-12-11 15:55:15] File "schedule.wpi" not found, skip running schedule script.
[2023-12-11 15:55:15] Pending for incoming shutdown command...
[2023-12-11 15:55:17] Shutting down system because input voltge is too low: Vin=4.12V, Vlow=4.2V
Shutting down in 20 seconds...
Good Bye Mon 11 Dec 15:55:37 GMT 2023
[2023-12-11 15:55:37] Halting all processes and then shutdown Raspberry Pi...
[xxxx-xx-xx xx:xx:xx] Witty Pi daemon (v4.13) is started.
[xxxx-xx-xx xx:xx:xx] Running on Raspberry Pi 4 Model B Rev 1.5
[xxxx-xx-xx xx:xx:xx] Seems RTC has good time, write RTC time into system
[xxxx-xx-xx xx:xx:xx] Writing RTC time to system...
[2023-12-11 15:56:16] Done :-)
[2023-12-11 15:56:16] Firmware ID: 0x37
[2023-12-11 15:56:16] Firmware Revison: 0x02
[2023-12-11 15:56:16] Current Vout=5.19V, Iout=0.51A
[2023-12-11 15:56:16] System starts up because USB 5V is connected.
[2023-12-11 15:56:21] Send out the SYS_UP signal via GPIO-17 pin.
[2023-12-11 15:56:21] File "schedule.wpi" not found, skip running schedule script.
[2023-12-11 15:56:21] Pending for incoming shutdown command...
[2023-12-11 15:57:59] Shutting down system because input voltge is too low: Vin=3.63V, Vlow=4.2V
Shutting down in 20 seconds...
Good Bye Mon 11 Dec 15:58:19 GMT 2023
[2023-12-11 15:58:19] Halting all processes and then shutdown Raspberry Pi...
[xxxx-xx-xx xx:xx:xx] Witty Pi daemon (v4.13) is started.
[xxxx-xx-xx xx:xx:xx] Running on Raspberry Pi 4 Model B Rev 1.5
[xxxx-xx-xx xx:xx:xx] Seems RTC has good time, write RTC time into system
[xxxx-xx-xx xx:xx:xx] Writing RTC time to system...
[2023-12-11 15:59:35] Done :-)
[2023-12-11 15:59:35] Firmware ID: 0x37
[2023-12-11 15:59:35] Firmware Revison: 0x02
[2023-12-11 15:59:35] Current Vin=4.12V, Vout=5.2V, Iout=0.45A
[2023-12-11 15:59:35] Unknown/incorrect startup reason: 0x04
[2023-12-11 15:59:40] Send out the SYS_UP signal via GPIO-17 pin.
[2023-12-11 15:59:40] File "schedule.wpi" not found, skip running schedule script.
[2023-12-11 15:59:40] Pending for incoming shutdown command...
[2023-12-11 15:59:41] Shutting down system because input voltge is too low: Vin=4.12V, Vlow=4.2V
Shutting down in 20 seconds...
Good Bye Mon 11 Dec 16:00:01 GMT 2023
[2023-12-11 16:00:01] Halting all processes and then shutdown Raspberry Pi...
[xxxx-xx-xx xx:xx:xx] Witty Pi daemon (v4.13) is started.
[xxxx-xx-xx xx:xx:xx] Running on Raspberry Pi 4 Model B Rev 1.5
[xxxx-xx-xx xx:xx:xx] Seems RTC has good time, write RTC time into system
[xxxx-xx-xx xx:xx:xx] Writing RTC time to system...
[2023-12-11 16:00:46] Done :-)
[2023-12-11 16:00:46] Firmware ID: 0x37
[2023-12-11 16:00:46] Firmware Revison: 0x02
[2023-12-11 16:00:46] Current Vout=5.19V, Iout=0.36A
[2023-12-11 16:00:46] System starts up because USB 5V is connected.
[2023-12-11 16:00:51] Send out the SYS_UP signal via GPIO-17 pin.
[2023-12-11 16:00:51] File "schedule.wpi" not found, skip running schedule script.
[2023-12-11 16:00:51] Pending for incoming shutdown command...
[2023-12-11 16:01:06] Shutting down system because button is clicked or GPIO-4 is pulled down.
Shutting down in 20 seconds...
Good Bye Mon 11 Dec 16:01:26 GMT 2023
[2023-12-11 16:01:26] Halting all processes and then shutdown Raspberry Pi...
[xxxx-xx-xx xx:xx:xx] Witty Pi daemon (v4.13) is started.
[xxxx-xx-xx xx:xx:xx] Running on Raspberry Pi 4 Model B Rev 1.5
[xxxx-xx-xx xx:xx:xx] Seems RTC has good time, write RTC time into system
[xxxx-xx-xx xx:xx:xx] Writing RTC time to system...
[2023-12-11 16:08:15] Done :-)
[2023-12-11 16:08:15] Firmware ID: 0x37
[2023-12-11 16:08:15] Firmware Revison: 0x02
[2023-12-11 16:08:15] Current Vin=4.12V, Vout=5.2V, Iout=0.53A
[2023-12-11 16:08:15] Unknown/incorrect startup reason: 0x04
[2023-12-11 16:08:20] Send out the SYS_UP signal via GPIO-17 pin.
[2023-12-11 16:08:20] File "schedule.wpi" not found, skip running schedule script.
[2023-12-11 16:08:20] Pending for incoming shutdown command...
[2023-12-11 16:08:21] Shutting down system because input voltge is too low: Vin=4.12V, Vlow=4.2V
Shutting down in 20 seconds...
Good Bye Mon 11 Dec 16:08:41 GMT 2023
[2023-12-11 16:08:41] Halting all processes and then shutdown Raspberry Pi...
[xxxx-xx-xx xx:xx:xx] Witty Pi daemon (v4.13) is started.
[xxxx-xx-xx xx:xx:xx] Running on Raspberry Pi 4 Model B Rev 1.5
[xxxx-xx-xx xx:xx:xx] Seems RTC has good time, write RTC time into system
[xxxx-xx-xx xx:xx:xx] Writing RTC time to system...
[2023-12-11 16:09:21] Done :-)
[2023-12-11 16:09:21] Firmware ID: 0x37
[2023-12-11 16:09:21] Firmware Revison: 0x02
[2023-12-11 16:09:21] Current Vout=5.25V, Iout=0.47A
[2023-12-11 16:09:21] System starts up because USB 5V is connected.
[2023-12-11 16:09:26] Send out the SYS_UP signal via GPIO-17 pin.
[2023-12-11 16:09:26] File "schedule.wpi" not found, skip running schedule script.
[2023-12-11 16:09:26] Pending for incoming shutdown command...
[2023-12-11 16:09:48] Shutting down system because button is clicked or GPIO-4 is pulled down.
Shutting down in 20 seconds...
Good Bye Mon 11 Dec 16:10:08 GMT 2023
[2023-12-11 16:10:08] Halting all processes and then shutdown Raspberry Pi...
[xxxx-xx-xx xx:xx:xx] Witty Pi daemon (v4.13) is started.
[xxxx-xx-xx xx:xx:xx] Running on Raspberry Pi 4 Model B Rev 1.5
[xxxx-xx-xx xx:xx:xx] Seems RTC has good time, write RTC time into system
[xxxx-xx-xx xx:xx:xx] Writing RTC time to system...
[2023-12-11 16:12:57] Done :-)
[2023-12-11 16:12:57] Firmware ID: 0x37
[2023-12-11 16:12:57] Firmware Revison: 0x02
[2023-12-11 16:12:57] Current Vin=4.18V, Vout=5.19V, Iout=0.43A
[2023-12-11 16:12:57] Unknown/incorrect startup reason: 0x04
[2023-12-11 16:13:02] Send out the SYS_UP signal via GPIO-17 pin.
[2023-12-11 16:13:02] File "schedule.wpi" not found, skip running schedule script.
[2023-12-11 16:13:02] Pending for incoming shutdown command...
[2023-12-11 16:13:03] Shutting down system because input voltge is too low: Vin=4.18V, Vlow=4.2V
Shutting down in 20 seconds...
Good Bye Mon 11 Dec 16:13:23 GMT 2023
[2023-12-11 16:13:23] Halting all processes and then shutdown Raspberry Pi...
[xxxx-xx-xx xx:xx:xx] Witty Pi daemon (v4.13) is started.
[xxxx-xx-xx xx:xx:xx] Running on Raspberry Pi 4 Model B Rev 1.5
[xxxx-xx-xx xx:xx:xx] Seems RTC has good time, write RTC time into system
[xxxx-xx-xx xx:xx:xx] Writing RTC time to system...
[2023-12-11 16:16:06] Done :-)
[2023-12-11 16:16:06] Firmware ID: 0x37
[2023-12-11 16:16:06] Firmware Revison: 0x02
[2023-12-11 16:16:06] Current Vin=4.18V, Vout=5.2V, Iout=0.43A
[2023-12-11 16:16:06] Unknown/incorrect startup reason: 0x04
[2023-12-11 16:16:11] Send out the SYS_UP signal via GPIO-17 pin.
[2023-12-11 16:16:11] File "schedule.wpi" not found, skip running schedule script.
[2023-12-11 16:16:11] Pending for incoming shutdown command...
[2023-12-11 16:16:13] Shutting down system because input voltge is too low: Vin=4.12V, Vlow=4.2V
Shutting down in 20 seconds...
Good Bye Mon 11 Dec 16:16:33 GMT 2023
[2023-12-11 16:16:33] Halting all processes and then shutdown Raspberry Pi...
[xxxx-xx-xx xx:xx:xx] Witty Pi daemon (v4.13) is started.
[xxxx-xx-xx xx:xx:xx] Running on Raspberry Pi 4 Model B Rev 1.5
[xxxx-xx-xx xx:xx:xx] Seems RTC has good time, write RTC time into system
[xxxx-xx-xx xx:xx:xx] Writing RTC time to system...
[2023-12-11 16:26:50] Done :-)
[2023-12-11 16:26:50] Firmware ID: 0x37
[2023-12-11 16:26:50] Firmware Revison: 0x02
[2023-12-11 16:26:50] Current Vin=4.12V, Vout=5.19V, Iout=0.62A
[2023-12-11 16:26:50] Unknown/incorrect startup reason: 0x04
[2023-12-11 16:26:55] Send out the SYS_UP signal via GPIO-17 pin.
[2023-12-11 16:26:55] File "schedule.wpi" not found, skip running schedule script.
[2023-12-11 16:26:55] Pending for incoming shutdown command...
[2023-12-11 16:26:56] Shutting down system because input voltge is too low: Vin=4.12V, Vlow=4.2V
Shutting down in 20 seconds...
Good Bye Mon 11 Dec 16:27:16 GMT 2023
[2023-12-11 16:27:17] Halting all processes and then shutdown Raspberry Pi...
[xxxx-xx-xx xx:xx:xx] Witty Pi daemon (v4.13) is started.
[xxxx-xx-xx xx:xx:xx] Running on Raspberry Pi 4 Model B Rev 1.5
[xxxx-xx-xx xx:xx:xx] Seems RTC has good time, write RTC time into system
[xxxx-xx-xx xx:xx:xx] Writing RTC time to system...
[2023-12-11 16:45:17] Done :-)
[2023-12-11 16:45:17] Firmware ID: 0x37
[2023-12-11 16:45:17] Firmware Revison: 0x02
[2023-12-11 16:45:17] Current Vout=5.25V, Iout=0.53A
[2023-12-11 16:45:17] System starts up because USB 5V is connected.
[2023-12-11 16:45:22] Send out the SYS_UP signal via GPIO-17 pin.
[2023-12-11 16:45:22] File "schedule.wpi" not found, skip running schedule script.
[2023-12-11 16:45:22] Pending for incoming shutdown command...
[2023-12-11 16:45:49] Shutting down system because input voltge is too low: Vin=3.63V, Vlow=4.2V
Shutting down in 20 seconds...
Good Bye Mon 11 Dec 16:46:10 GMT 2023
[2023-12-11 16:46:10] Halting all processes and then shutdown Raspberry Pi...
[xxxx-xx-xx xx:xx:xx] Witty Pi daemon (v4.13) is started.
[xxxx-xx-xx xx:xx:xx] Running on Raspberry Pi 4 Model B Rev 1.5
[xxxx-xx-xx xx:xx:xx] RTC has bad time, write system time into RTC
[xxxx-xx-xx xx:xx:xx] Writing system time to RTC...
[xxxx-xx-xx xx:xx:xx] I2C write 0x01 0x08 58 17 failed (result=0xc9), retrying 1 ...
[xxxx-xx-xx xx:xx:xx] I2C read 0x01 0x08 58 failed (result=), retrying 1 ...
[xxxx-xx-xx xx:xx:xx] Witty Pi daemon (v4.13) is started.
[xxxx-xx-xx xx:xx:xx] Running on Raspberry Pi 4 Model B Rev 1.5
[xxxx-xx-xx xx:xx:xx] RTC has bad time, write system time into RTC
[xxxx-xx-xx xx:xx:xx] Writing system time to RTC...
[xxxx-xx-xx xx:xx:xx] I2C read 0x01 0x08 58 failed (result=), retrying 1 ...
[xxxx-xx-xx xx:xx:xx] I2C read 0x01 0x08 58 failed (result=), retrying 2 ...
[xxxx-xx-xx xx:xx:xx] I2C write 0x01 0x08 58 8 failed (result=0xa1), retrying 1 ...
[xxxx-xx-xx xx:xx:xx] I2C read 0x01 0x08 58 failed (result=), retrying 1 ...
[xxxx-xx-xx xx:xx:xx] I2C read 0x01 0x08 58 failed (result=), retrying 2 ...
[xxxx-xx-xx xx:xx:xx] I2C write 0x01 0x08 58 8 failed (result=0xa6), retrying 2 ...
[xxxx-xx-xx xx:xx:xx] I2C write 0x01 0x08 58 8 failed (result=0xa8), retrying 3 ...
[xxxx-xx-xx xx:xx:xx] I2C write 0x01 0x08 58 8 failed (result=0xb0), and no more retry.
[xxxx-xx-xx xx:xx:xx] I2C read 0x01 0x08 61 failed (result=), retrying 1 ...
[xxxx-xx-xx xx:xx:xx] I2C read 0x01 0x08 61 failed (result=), retrying 2 ...
[xxxx-xx-xx xx:xx:xx] I2C read 0x01 0x08 64 failed (result=), retrying 1 ...
<2019-02-14 10:12:26> Done :-)
<2019-02-14 10:12:26> System was previously shut down because of low-voltage.
<2019-02-14 10:12:26> Firmware ID: 0x37
<2019-02-14 10:12:26> Firmware Revison: 0x05
<2019-02-14 10:12:28> I2C read 0x01 0x08 4 failed (result=), retrying 1 ...
<2019-02-14 10:12:30> I2C read 0x01 0x08 4 failed (result=), retrying 2 ...
<2019-02-14 10:12:32> I2C read 0x01 0x08 4 failed (result=), retrying 3 ...
<2019-02-14 10:12:33> I2C read 0x01 0x08 4 failed (result=), and no more retry.
<2019-02-14 10:12:35> I2C read 0x01 0x08 5 failed (result=), retrying 1 ...
<2019-02-14 10:12:37> I2C read 0x01 0x08 5 failed (result=), retrying 2 ...
<2019-02-14 10:12:39> I2C read 0x01 0x08 5 failed (result=), retrying 3 ...
<2019-02-14 10:12:40> I2C read 0x01 0x08 5 failed (result=), and no more retry.
<2019-02-14 10:12:42> I2C read 0x01 0x08 6 failed (result=), retrying 1 ...
<2019-02-14 10:12:44> I2C read 0x01 0x08 6 failed (result=), retrying 2 ...
<2019-02-14 10:12:46> I2C read 0x01 0x08 6 failed (result=), retrying 3 ...
<2019-02-14 10:12:47> I2C read 0x01 0x08 6 failed (result=), and no more retry.
<2019-02-14 10:12:50> I2C read 0x01 0x08 7 failed (result=), retrying 1 ...
<2019-02-14 10:12:52> I2C read 0x01 0x08 7 failed (result=), retrying 2 ...
<2019-02-14 10:12:54> I2C read 0x01 0x08 7 failed (result=), retrying 3 ...
<2019-02-14 10:12:55> I2C read 0x01 0x08 7 failed (result=), and no more retry.
<2019-02-14 10:12:57> I2C read 0x01 0x08 1 failed (result=), retrying 1 ...
<2019-02-14 10:12:59> I2C read 0x01 0x08 1 failed (result=), retrying 2 ...
<2019-02-14 10:13:01> I2C read 0x01 0x08 1 failed (result=), retrying 3 ...
<2019-02-14 10:13:02> I2C read 0x01 0x08 1 failed (result=), and no more retry.
<2019-02-14 10:13:04> I2C read 0x01 0x08 2 failed (result=), retrying 1 ...
<2019-02-14 10:13:06> I2C read 0x01 0x08 2 failed (result=), retrying 2 ...
<2019-02-14 10:13:08> I2C read 0x01 0x08 2 failed (result=), retrying 3 ...
<2019-02-14 10:13:09> I2C read 0x01 0x08 2 failed (result=), and no more retry.
<2019-02-14 10:13:09> Current Vin=V, Vout=V, Iout=A
<2019-02-14 10:13:11> I2C read 0x01 0x08 44 failed (result=), retrying 1 ...
<2019-02-14 10:13:14> I2C read 0x01 0x08 44 failed (result=), retrying 2 ...
<2019-02-14 10:13:16> I2C read 0x01 0x08 44 failed (result=), retrying 3 ...
<2019-02-14 10:13:17> I2C read 0x01 0x08 44 failed (result=), and no more retry.
<2019-02-14 10:13:19> I2C read 0x01 0x08 46 failed (result=), retrying 1 ...
<2019-02-14 10:13:21> I2C read 0x01 0x08 46 failed (result=), retrying 2 ...
<2019-02-14 10:13:23> I2C read 0x01 0x08 46 failed (result=), retrying 3 ...
<2019-02-14 10:13:24> I2C read 0x01 0x08 46 failed (result=), and no more retry.
<2019-02-14 10:13:26> I2C read 0x01 0x08 39 failed (result=), retrying 1 ...
<2019-02-14 10:13:28> I2C read 0x01 0x08 39 failed (result=), retrying 2 ...
<2019-02-14 10:13:30> I2C read 0x01 0x08 39 failed (result=), retrying 3 ...
<2019-02-14 10:13:31> I2C read 0x01 0x08 39 failed (result=), and no more retry.
<2019-02-14 10:13:33> I2C read 0x01 0x08 40 failed (result=), retrying 1 ...
<2019-02-14 10:13:35> I2C read 0x01 0x08 40 failed (result=), retrying 2 ...
<2019-02-14 10:13:37> I2C read 0x01 0x08 40 failed (result=), retrying 3 ...
<2019-02-14 10:13:38> I2C read 0x01 0x08 40 failed (result=), and no more retry.
<2019-02-14 10:13:41> I2C read 0x01 0x08 55 failed (result=), retrying 1 ...
<2019-02-14 10:13:43> I2C read 0x01 0x08 55 failed (result=), retrying 2 ...
<2019-02-14 10:13:45> I2C read 0x01 0x08 55 failed (result=), retrying 3 ...
<2019-02-14 10:13:46> I2C read 0x01 0x08 55 failed (result=), and no more retry.
<2019-02-14 10:13:51> Send out the SYS_UP signal via GPIO-17 pin.
<2019-02-14 10:13:52> Pending for incoming shutdown command...
[2019-02-14 10:13:53] I2C read 0x01 0x08 58 failed (result=), retrying 1 ...
[2019-02-14 10:13:55] I2C read 0x01 0x08 58 failed (result=), retrying 2 ...
[2019-02-14 10:13:58] I2C read 0x01 0x08 58 failed (result=), retrying 3 ...
[2019-02-14 10:13:59] I2C read 0x01 0x08 58 failed (result=), and no more retry.
[2019-02-14 10:14:01] I2C read 0x01 0x08 59 failed (result=), retrying 1 ...
[2019-02-14 10:14:03] I2C read 0x01 0x08 59 failed (result=), retrying 2 ...
[2019-02-14 10:14:05] I2C read 0x01 0x08 59 failed (result=), retrying 3 ...
[2019-02-14 10:14:06] I2C read 0x01 0x08 59 failed (result=), and no more retry.
[2019-02-14 10:14:08] I2C read 0x01 0x08 60 failed (result=), retrying 1 ...
[2019-02-14 10:14:10] I2C read 0x01 0x08 60 failed (result=), retrying 2 ...
[2019-02-14 10:14:12] I2C read 0x01 0x08 60 failed (result=), retrying 3 ...
[2019-02-14 10:14:13] I2C read 0x01 0x08 60 failed (result=), and no more retry.
[2019-02-14 10:14:15] I2C read 0x01 0x08 61 failed (result=), retrying 1 ...
[2019-02-14 10:14:17] I2C read 0x01 0x08 61 failed (result=), retrying 2 ...
[2019-02-14 10:14:19] I2C read 0x01 0x08 61 failed (result=), retrying 3 ...
[2019-02-14 10:14:20] I2C read 0x01 0x08 61 failed (result=), and no more retry.
[2019-02-14 10:14:22] I2C read 0x01 0x08 63 failed (result=), retrying 1 ...
[2019-02-14 10:14:25] I2C read 0x01 0x08 63 failed (result=), retrying 2 ...
[2019-02-14 10:14:27] I2C read 0x01 0x08 63 failed (result=), retrying 3 ...
[2019-02-14 10:14:28] I2C read 0x01 0x08 63 failed (result=), and no more retry.
[2019-02-14 10:14:30] I2C read 0x01 0x08 64 failed (result=), retrying 1 ...
[2019-02-14 10:14:32] I2C read 0x01 0x08 64 failed (result=), retrying 2 ...
[2019-02-14 10:14:34] I2C read 0x01 0x08 64 failed (result=), retrying 3 ...
[2019-02-14 10:14:35] I2C read 0x01 0x08 64 failed (result=), and no more retry.
[2019-02-14 10:14:35] File "schedule.wpi" not found, skip running schedule script.
[xxxx-xx-xx xx:xx:xx] Witty Pi daemon (v4.13) is started.
[xxxx-xx-xx xx:xx:xx] Running on Raspberry Pi 4 Model B Rev 1.5
[xxxx-xx-xx xx:xx:xx] Seems RTC has good time, write RTC time into system
[xxxx-xx-xx xx:xx:xx] Writing RTC time to system...
[2019-02-14 10:42:09] Done :-)
[2019-02-14 10:42:10] I2C read 0x01 0x08 8 failed (result=), retrying 1 ...
[2019-02-14 10:42:10] System was previously shut down because of low-voltage.
[2019-02-14 10:42:10] Firmware ID: 0x37
[2019-02-14 10:42:10] Firmware Revison: 0x05
[2019-02-14 10:42:12] I2C read 0x01 0x08 6 failed (result=), retrying 1 ...
[2019-02-14 10:42:15] I2C read 0x01 0x08 6 failed (result=), retrying 2 ...
[2019-02-14 10:42:17] I2C read 0x01 0x08 6 failed (result=), retrying 3 ...
[2019-02-14 10:42:18] I2C read 0x01 0x08 6 failed (result=), and no more retry.
[2019-02-14 10:42:20] I2C read 0x01 0x08 7 failed (result=), retrying 1 ...
[2019-02-14 10:42:22] I2C read 0x01 0x08 7 failed (result=), retrying 2 ...
[2019-02-14 10:42:24] I2C read 0x01 0x08 7 failed (result=), retrying 3 ...
[2019-02-14 10:42:25] I2C read 0x01 0x08 7 failed (result=), and no more retry.
[2019-02-14 10:42:27] I2C read 0x01 0x08 1 failed (result=), retrying 1 ...
[2019-02-14 10:42:29] I2C read 0x01 0x08 1 failed (result=), retrying 2 ...
[2019-02-14 10:42:31] I2C read 0x01 0x08 1 failed (result=), retrying 3 ...
[2019-02-14 10:42:32] I2C read 0x01 0x08 1 failed (result=), and no more retry.
[2019-02-14 10:42:34] I2C read 0x01 0x08 2 failed (result=), retrying 1 ...
[2019-02-14 10:42:36] I2C read 0x01 0x08 2 failed (result=), retrying 2 ...
[2019-02-14 10:42:38] I2C read 0x01 0x08 2 failed (result=), retrying 3 ...
[2019-02-14 10:42:40] I2C read 0x01 0x08 2 failed (result=), and no more retry.
[2019-02-14 10:42:40] Current Vin=V, Vout=2.48V, Iout=A
[2019-02-14 10:42:42] I2C read 0x01 0x08 44 failed (result=), retrying 1 ...
[2019-02-14 10:42:44] I2C read 0x01 0x08 44 failed (result=), retrying 2 ...
[2019-02-14 10:42:46] I2C read 0x01 0x08 44 failed (result=), retrying 3 ...
[2019-02-14 10:42:47] I2C read 0x01 0x08 44 failed (result=), and no more retry.
[2019-02-14 10:42:49] I2C read 0x01 0x08 46 failed (result=), retrying 1 ...
[2019-02-14 10:42:51] I2C read 0x01 0x08 46 failed (result=), retrying 2 ...
[2019-02-14 10:42:53] I2C read 0x01 0x08 46 failed (result=), retrying 3 ...
[2019-02-14 10:42:54] I2C read 0x01 0x08 46 failed (result=), and no more retry.
[2019-02-14 10:42:56] I2C read 0x01 0x08 39 failed (result=), retrying 1 ...
[2019-02-14 10:42:58] I2C read 0x01 0x08 39 failed (result=), retrying 2 ...
[2019-02-14 10:43:00] I2C read 0x01 0x08 39 failed (result=), retrying 3 ...
[2019-02-14 10:43:01] I2C read 0x01 0x08 39 failed (result=), and no more retry.
[2019-02-14 10:43:03] I2C read 0x01 0x08 40 failed (result=), retrying 1 ...
[2019-02-14 10:43:06] I2C read 0x01 0x08 40 failed (result=), retrying 2 ...
[2019-02-14 10:43:08] I2C read 0x01 0x08 40 failed (result=), retrying 3 ...
[2019-02-14 10:43:09] I2C read 0x01 0x08 40 failed (result=), and no more retry.
[2019-02-14 10:43:11] I2C read 0x01 0x08 55 failed (result=), retrying 1 ...
[2019-02-14 10:43:13] I2C read 0x01 0x08 55 failed (result=), retrying 2 ...
[2019-02-14 10:43:15] I2C read 0x01 0x08 55 failed (result=), retrying 3 ...
[2019-02-14 10:43:16] I2C read 0x01 0x08 55 failed (result=), and no more retry.
[2019-02-14 10:43:21] Send out the SYS_UP signal via GPIO-17 pin.
[2019-02-14 10:43:22] Pending for incoming shutdown command...
[2019-02-14 10:43:23] I2C read 0x01 0x08 58 failed (result=), retrying 1 ...
[2019-02-14 10:43:26] I2C read 0x01 0x08 58 failed (result=), retrying 2 ...
[2019-02-14 10:43:28] I2C read 0x01 0x08 58 failed (result=), retrying 3 ...
[2019-02-14 10:43:29] I2C read 0x01 0x08 58 failed (result=), and no more retry.
[2019-02-14 10:43:31] I2C read 0x01 0x08 59 failed (result=), retrying 1 ...
[2019-02-14 10:43:33] I2C read 0x01 0x08 59 failed (result=), retrying 2 ...
[2019-02-14 10:43:35] I2C read 0x01 0x08 59 failed (result=), retrying 3 ...
[2019-02-14 10:43:36] I2C read 0x01 0x08 59 failed (result=), and no more retry.
[2019-02-14 10:43:38] I2C read 0x01 0x08 60 failed (result=), retrying 1 ...
[2019-02-14 10:43:40] I2C read 0x01 0x08 60 failed (result=), retrying 2 ...
[2019-02-14 10:43:42] I2C read 0x01 0x08 60 failed (result=), retrying 3 ...
[2019-02-14 10:43:43] I2C read 0x01 0x08 60 failed (result=), and no more retry.
[2019-02-14 10:43:45] I2C read 0x01 0x08 61 failed (result=), retrying 1 ...
[2019-02-14 10:43:47] I2C read 0x01 0x08 61 failed (result=), retrying 2 ...
[2019-02-14 10:43:49] I2C read 0x01 0x08 61 failed (result=), retrying 3 ...
[2019-02-14 10:43:51] I2C read 0x01 0x08 61 failed (result=), and no more retry.
[2019-02-14 10:43:53] I2C read 0x01 0x08 63 failed (result=), retrying 1 ...
[2019-02-14 10:43:55] I2C read 0x01 0x08 63 failed (result=), retrying 2 ...
[2019-02-14 10:43:57] I2C read 0x01 0x08 63 failed (result=), retrying 3 ...
[2019-02-14 10:43:58] I2C read 0x01 0x08 63 failed (result=), and no more retry.
[2019-02-14 10:44:00] I2C read 0x01 0x08 64 failed (result=), retrying 1 ...
[2019-02-14 10:44:02] I2C read 0x01 0x08 64 failed (result=), retrying 2 ...
[2019-02-14 10:44:04] I2C read 0x01 0x08 64 failed (result=), retrying 3 ...
[2019-02-14 10:44:05] I2C read 0x01 0x08 64 failed (result=), and no more retry.
[2019-02-14 10:44:05] File "schedule.wpi" not found, skip running schedule script.
[xxxx-xx-xx xx:xx:xx] Witty Pi daemon (v4.13) is started.
[xxxx-xx-xx xx:xx:xx] Running on Raspberry Pi 4 Model B Rev 1.5
[xxxx-xx-xx xx:xx:xx] Witty Pi is not detected, retry in one second...
[xxxx-xx-xx xx:xx:xx] Witty Pi is not detected, retry in one second...
[xxxx-xx-xx xx:xx:xx] Witty Pi daemon (v4.13) is started.
[xxxx-xx-xx xx:xx:xx] Running on Raspberry Pi 4 Model B Rev 1.5
[xxxx-xx-xx xx:xx:xx] Seems RTC has good time, write RTC time into system
[xxxx-xx-xx xx:xx:xx] Writing RTC time to system...
[xxxx-xx-xx xx:xx:xx] I2C read 0x01 0x08 59 failed (result=), retrying 1 ...
[2019-02-14 11:01:33] Done :-)
[2019-02-14 11:01:34] I2C read 0x01 0x08 8 failed (result=), retrying 1 ...
[2019-02-14 11:01:34] System was previously shut down because of low-voltage.
[2019-02-14 11:01:34] Firmware ID: 0x37
[2019-02-14 11:01:34] Firmware Revison: 0x05
[2019-02-14 11:01:36] I2C read 0x01 0x08 1 failed (result=), retrying 1 ...
[2019-02-14 11:01:36] Current Vin=0.65V, Vout=2.48V, Iout=0.81A
[2019-02-14 11:01:39] I2C read 0x01 0x08 39 failed (result=), retrying 1 ...
[2019-02-14 11:01:41] I2C read 0x01 0x08 39 failed (result=), retrying 2 ...
[2019-02-14 11:01:41] System starts up because scheduled startup is due.
[2019-02-14 11:01:46] Send out the SYS_UP signal via GPIO-17 pin.
[2019-02-14 11:01:46] Pending for incoming shutdown command...
[2019-02-14 11:01:48] I2C read 0x01 0x08 58 failed (result=), retrying 1 ...
[2019-02-14 11:01:50] I2C read 0x01 0x08 64 failed (result=), retrying 1 ...
[2019-02-14 11:01:50] File "schedule.wpi" not found, skip running schedule script.
[xxxx-xx-xx xx:xx:xx] Witty Pi daemon (v4.13) is started.
[xxxx-xx-xx xx:xx:xx] Running on Raspberry Pi 4 Model B Rev 1.5
[xxxx-xx-xx xx:xx:xx] Witty Pi is not detected, retry in one second...
[xxxx-xx-xx xx:xx:xx] Witty Pi is not detected, retry in one second...
[xxxx-xx-xx xx:xx:xx] Witty Pi daemon (v4.13) is started.
[xxxx-xx-xx xx:xx:xx] Running on Raspberry Pi 4 Model B Rev 1.5
[xxxx-xx-xx xx:xx:xx] Witty Pi is not detected, retry in one second...
[xxxx-xx-xx xx:xx:xx] Witty Pi is not detected, retry in one second...
[xxxx-xx-xx xx:xx:xx] Witty Pi is not detected, retry in one second...
[xxxx-xx-xx xx:xx:xx] Witty Pi is not detected, retry in one second...
[xxxx-xx-xx xx:xx:xx] Witty Pi is not detected, retry in one second...
[xxxx-xx-xx xx:xx:xx] Witty Pi is not connected, skip I2C communications...
<2019-02-14 10:12:15> Witty Pi is not connected, skip schedule script...
<2019-02-14 10:12:15> Send out the SYS_UP signal via GPIO-17 pin.
<2019-02-14 10:12:15> Pending for incoming shutdown command...
[xxxx-xx-xx xx:xx:xx] Witty Pi daemon (v4.13) is started.
[xxxx-xx-xx xx:xx:xx] Running on Raspberry Pi 4 Model B Rev 1.5
[xxxx-xx-xx xx:xx:xx] Seems RTC has good time, write RTC time into system
[xxxx-xx-xx xx:xx:xx] Writing RTC time to system...
[2019-02-14 14:47:31] Done :-)
[2019-02-14 14:47:31] Firmware ID: 0x37
[2019-02-14 14:47:31] Firmware Revison: 0x05
[2019-02-14 14:47:31] Current Vout=5.31V, Iout=0.6A
[2019-02-14 14:47:31] System starts up because USB 5V is connected.
[2019-02-14 14:47:36] Send out the SYS_UP signal via GPIO-17 pin.
[2019-02-14 14:47:36] File "schedule.wpi" not found, skip running schedule script.
[2019-02-14 14:47:36] Pending for incoming shutdown command...
[xxxx-xx-xx xx:xx:xx] Witty Pi daemon (v4.13) is started.
[xxxx-xx-xx xx:xx:xx] Running on Raspberry Pi 4 Model B Rev 1.5
[xxxx-xx-xx xx:xx:xx] Seems RTC has good time, write RTC time into system
[xxxx-xx-xx xx:xx:xx] Writing RTC time to system...
[2019-02-14 15:26:23] Done :-)
[2019-02-14 15:26:23] Firmware ID: 0x37
[2019-02-14 15:26:23] Firmware Revison: 0x05
[2019-02-14 15:26:23] Current Vout=5.2V, Iout=0.64A
[2019-02-14 15:26:23] System starts up because USB 5V is connected.
[2019-02-14 15:26:28] Send out the SYS_UP signal via GPIO-17 pin.
[2019-02-14 15:26:28] File "schedule.wpi" not found, skip running schedule script.
[2019-02-14 15:26:28] Pending for incoming shutdown command...
[xxxx-xx-xx xx:xx:xx] Witty Pi daemon (v4.13) is started.
[xxxx-xx-xx xx:xx:xx] Running on Raspberry Pi 4 Model B Rev 1.5
[xxxx-xx-xx xx:xx:xx] Seems RTC has good time, write RTC time into system
[xxxx-xx-xx xx:xx:xx] Writing RTC time to system...
[2019-02-15 13:20:36] Done :-)
[2019-02-15 13:20:36] Firmware ID: 0x37
[2019-02-15 13:20:36] Firmware Revison: 0x05
[2019-02-15 13:20:36] Current Vout=5.25V, Iout=0.38A
[2019-02-15 13:20:36] System starts up because USB 5V is connected.
[2019-02-15 13:20:41] Send out the SYS_UP signal via GPIO-17 pin.
[2019-02-15 13:20:42] Pending for incoming shutdown command...
[2019-02-15 13:20:42] File "schedule.wpi" not found, skip running schedule script.
[xxxx-xx-xx xx:xx:xx] Witty Pi daemon (v4.13) is started.
[xxxx-xx-xx xx:xx:xx] Running on Raspberry Pi 4 Model B Rev 1.5
[xxxx-xx-xx xx:xx:xx] Seems RTC has good time, write RTC time into system
[xxxx-xx-xx xx:xx:xx] Writing RTC time to system...
[2019-02-15 15:19:01] Done :-)
[2019-02-15 15:19:01] Firmware ID: 0x37
[2019-02-15 15:19:01] Firmware Revison: 0x05
[2019-02-15 15:19:01] Current Vout=5.21V, Iout=0.49A
[2019-02-15 15:19:01] System starts up because USB 5V is connected.
[2019-02-15 15:19:06] Send out the SYS_UP signal via GPIO-17 pin.
[2019-02-15 15:19:07] Pending for incoming shutdown command...
[2019-02-15 15:19:07] File "schedule.wpi" not found, skip running schedule script.
[xxxx-xx-xx xx:xx:xx] Witty Pi daemon (v4.13) is started.
[xxxx-xx-xx xx:xx:xx] Running on Raspberry Pi 4 Model B Rev 1.5
[xxxx-xx-xx xx:xx:xx] Seems RTC has good time, write RTC time into system
[xxxx-xx-xx xx:xx:xx] Writing RTC time to system...
[2019-02-15 15:43:17] Done :-)
[2019-02-15 15:43:17] Firmware ID: 0x37
[2019-02-15 15:43:17] Firmware Revison: 0x05
[2019-02-15 15:43:17] Current Vout=5.19V, Iout=0.53A
[2019-02-15 15:43:17] System starts up because USB 5V is connected.
[2019-02-15 15:43:22] Send out the SYS_UP signal via GPIO-17 pin.
[2019-02-15 15:43:22] Pending for incoming shutdown command...
[2019-02-15 15:43:23] File "schedule.wpi" not found, skip running schedule script.
[xxxx-xx-xx xx:xx:xx] Witty Pi daemon (v4.13) is started.
[xxxx-xx-xx xx:xx:xx] Running on Raspberry Pi 4 Model B Rev 1.5
[xxxx-xx-xx xx:xx:xx] Seems RTC has good time, write RTC time into system
[xxxx-xx-xx xx:xx:xx] Writing RTC time to system...
[2019-02-15 15:47:05] Done :-)
[2019-02-15 15:47:05] Firmware ID: 0x37
[2019-02-15 15:47:05] Firmware Revison: 0x05
[2019-02-15 15:47:05] Current Vout=5.28V, Iout=0.38A
[2019-02-15 15:47:05] System starts up because USB 5V is connected.
[2019-02-15 15:47:10] Send out the SYS_UP signal via GPIO-17 pin.
[2019-02-15 15:47:10] File "schedule.wpi" not found, skip running schedule script.
[2019-02-15 15:47:10] Pending for incoming shutdown command...
[2024-03-13 17:59:37] Shutting down system because input voltge is too low: Vin=3.08V, Vlow=3.1V
Shutting down in 20 seconds...
Good Bye Wed 13 Mar 17:59:57 GMT 2024
[2024-03-13 17:59:57] Halting all processes and then shutdown Raspberry Pi...
[xxxx-xx-xx xx:xx:xx] Witty Pi daemon (v4.13) is started.
[xxxx-xx-xx xx:xx:xx] Running on Raspberry Pi 4 Model B Rev 1.5
[xxxx-xx-xx xx:xx:xx] Witty Pi is not detected, retry in one second...
[xxxx-xx-xx xx:xx:xx] Witty Pi is not detected, retry in one second...
[xxxx-xx-xx xx:xx:xx] Witty Pi is not detected, retry in one second...
[xxxx-xx-xx xx:xx:xx] Witty Pi is not detected, retry in one second...
[xxxx-xx-xx xx:xx:xx] Witty Pi is not detected, retry in one second...
[xxxx-xx-xx xx:xx:xx] Witty Pi is not connected, skip I2C communications...
<2019-02-14 10:12:16> Witty Pi is not connected, skip schedule script...
<2019-02-14 10:12:16> Send out the SYS_UP signal via GPIO-17 pin.
<2019-02-14 10:12:16> Pending for incoming shutdown command...
[xxxx-xx-xx xx:xx:xx] Witty Pi daemon (v4.13) is started.
[xxxx-xx-xx xx:xx:xx] Running on Raspberry Pi 4 Model B Rev 1.5
[xxxx-xx-xx xx:xx:xx] Seems RTC has good time, write RTC time into system
[xxxx-xx-xx xx:xx:xx] Writing RTC time to system...
[2019-02-17 07:36:03] Done :-)
[2019-02-17 07:36:03] Firmware ID: 0x37
[2019-02-17 07:36:03] Firmware Revison: 0x05
[2019-02-17 07:36:03] Current Vout=5.28V, Iout=0.21A
[2019-02-17 07:36:03] System starts up because USB 5V is connected.
[2019-02-17 07:36:08] Send out the SYS_UP signal via GPIO-17 pin.
[2019-02-17 07:36:08] File "schedule.wpi" not found, skip running schedule script.
[2019-02-17 07:36:08] Pending for incoming shutdown command...
                                                                                                                              [xxxx-xx-xx xx:xx:xx] Witty Pi daemon (v4.13) is started.
[xxxx-xx-xx xx:xx:xx] Running on Raspberry Pi 4 Model B Rev 1.5
[xxxx-xx-xx xx:xx:xx] Seems RTC has good time, write RTC time into system
[xxxx-xx-xx xx:xx:xx] Writing RTC time to system...
[2019-02-17 10:37:38] Done :-)
[2019-02-17 10:37:38] Firmware ID: 0x37
[2019-02-17 10:37:38] Firmware Revison: 0x05
[2019-02-17 10:37:38] Current Vout=5.19V, Iout=0.66A
[2019-02-17 10:37:38] System starts up because the button is clicked.
[2019-02-17 10:37:43] Send out the SYS_UP signal via GPIO-17 pin.
[2019-02-17 10:37:43] Pending for incoming shutdown command...
[2019-02-17 10:37:44] File "schedule.wpi" not found, skip running schedule script.
{
    "os_time": {
        "os_time": 1550399865.1793437,
        "timezone": "GMT"
    },
    "camera": {
        "connected": false,
        "id": "",
        "config": {
            "brightness": "300",
            "focus_auto": "2",
            "focus_absolute": "200",
            "exposure_auto": "3",
            "exposure_absolute": "320",
            "zoom_absolute": "400",
            "white_balance_temperature_auto": "3",
            "white_balance_temperature": "7000",
            "sharpness": "35",
            "contrast": "20"
        }
    },
    "memory": {
        "ssd_connected": true,
        "picture_count": 2733,
        "last_picture_timestamp": 1710352740.4699836,
        "last_picture_size": 147865,
        "picture_count_last_24h": 640,
        "picture_count_last_24h_below_200kb": 640,
        "free_memory": 55736463360
    },
    "bluetooth": {
        "powered": true,
        "enabled": true
    },
    "temperature": 36
}

{'total': 1, 'crc': '0001:15CB2833'}

{'crc': '0002:A3A6BF43'}

{'status': 'waiting for wireless service 13 sec [++--] {cell-registration-wait}', 'mode': '{cell-registered}', 'sync': True, 'requested': 1, 'crc': '0003:ADEAB278'}

{'status': 'waiting for wireless service 13 sec [++--] {cell-registration-wait}', 'mode': '{cell-registered}', 'sync': True, 'requested': 1, 'crc': '0004:ADEAB278'}

{'status': 'waiting for wireless service 13 sec [++--] {cell-registration-wait}', 'mode': '{cell-registered}', 'sync': True, 'requested': 2, 'crc': '0005:86C7E1BB'}

{'status': 'waiting for wireless service 13 sec [++--] {cell-registration-wait}', 'mode': '{cell-registered}', 'sync': True, 'requested': 3, 'crc': '0006:9FDCD0FA'}

{'status': 'waiting for wireless service 13 sec [++--] {cell-registration-wait}', 'mode': '{cell-registered}', 'sync': True, 'requested': 4, 'crc': '0007:D09D463D'}

{'status': 'waiting for wireless service 13 sec [++--] {cell-registration-wait}', 'mode': '{cell-registered}', 'sync': True, 'requested': 5, 'crc': '0008:C986777C'}

{'status': 'waiting for wireless service 13 sec [++--] {cell-registration-wait}', 'mode': '{cell-registered}', 'sync': True, 'requested': 6, 'crc': '0009:E2AB24BF'}

{'status': 'opening unidirectionally-authenticated secure session to a.notefile.net:8086 {socket-open-session}', 'mode': '{network-up}', 'sync': True, 'requested': 7, 'crc': '000A:5B7B144D'}

{'status': 'connecting to 10.0.66.13:8086 {socket-connecting}', 'mode': '{network-up}', 'sync': True, 'requested': 8, 'crc': '000B:284B9BDB'}

{'status': 'connect using TLS {socket-tls-connecting}', 'mode': '{network-up}', 'sync': True, 'requested': 10, 'crc': '000C:7C5ADD51'}

{'status': 'connect using TLS {socket-tls-connecting}', 'mode': '{network-up}', 'sync': True, 'requested': 11, 'crc': '000D:6541EC10'}

{'status': 'session opened {socket-opened-session}', 'mode': '{network-up}', 'sync': True, 'requested': 12, 'crc': '000E:72121597'}

{'status': 'begin (anything pending) {sync-begin}', 'mode': '{network-up}', 'sync': True, 'requested': 13, 'crc': '000F:1F2A8955'}

{'status': 'Notebox open PPP (sent:0 rcvd:0) {socket-ip-init}', 'mode': '{network-up}', 'sync': True, 'requested': 14, 'crc': '0010:782D2279'}

{'status': 'connecting to 10.0.34.7:20797 {socket-connecting}', 'mode': '{network-up}', 'sync': True, 'requested': 16, 'crc': '0011:76F82B8E'}

{'status': 'connect using TLS {socket-tls-connecting}', 'mode': '{network-up}', 'sync': True, 'requested': 18, 'crc': '0012:B4835759'}

{'status': 'upload-notebox (19 changes) {sync-get-local-changes}', 'mode': '{network-up}', 'sync': True, 'requested': 19, 'crc': '0013:6B9655A6'}

{'status': 'upload _env.dbs (4 changes) {sync-get-local-changes}', 'mode': '{network-up}', 'sync': True, 'requested': 20, 'crc': '0014:A3DCBD91'}

{'status': 'upload _health.qo (1 changes) {sync-get-local-changes}', 'mode': '{network-up}', 'sync': True, 'requested': 21, 'crc': '0015:434CEA89'}

{'status': 'upload data.qo (1 changes) {sync-get-local-changes}', 'mode': '{network-up}', 'requested': 22, 'crc': '0016:64286612'}

{'status': 'download _env.dbs (4 changes) {sync-get-remote-changes}', 'mode': '{network-up}', 'requested': 23, 'crc': '0017:39DD2850'}

{'status': 'download _env.dbs (4 changes) {sync-get-remote-changes}', 'mode': '{network-up}', 'requested': 25, 'crc': '0018:6F878FD6'}

{'status': 'download _env.dbs (4 changes) {sync-get-remote-changes}', 'mode': '{network-up}', 'requested': 26, 'crc': '0019:44AADC15'}

{'status': 'closed notehub {notehub-disconnected}', 'mode': '{network-up}', 'requested': 27, 'crc': '001A:C1256D90'}

{'status': 'idle {disconnected} {transport}', 'mode': '{modem-on}', 'requested': 28, 'crc': '001B:717CAF68'}

{'status': 'idle {disconnected} {transport}', 'mode': '{modem-on}', 'requested': 29, 'crc': '001C:68679E29'}

{'status': 'idle {disconnected} {transport}', 'mode': '{modem-on}', 'requested': 30, 'crc': '001D:B8674F57'}

{'status': 'idle {disconnected} {transport}', 'mode': '{modem-on}', 'requested': 31, 'crc': '001E:A17C7E16'}

{'status': 'idle {disconnected} {transport}', 'mode': '{modem-on}', 'requested': 32, 'crc': '001F:8A512DD5'}

{'status': 'idle {disconnected} {transport}', 'mode': '{modem-on}', 'requested': 33, 'crc': '0020:934A1C94'}

{'status': 'idle {disconnected} {transport}', 'mode': '{modem-on}', 'requested': 35, 'crc': '0021:C510BB12'}

{'status': 'idle {disconnected} {transport}', 'mode': '{modem-on}', 'requested': 36, 'crc': '0022:EE3DE8D1'}

{'status': 'modem now OFF {modem-off}', 'mode': '{modem-off}', 'requested': 37, 'crc': '0023:DBE0A0E0'}

{'status': 'modem now OFF {modem-off}', 'mode': '{modem-off}', 'requested': 38, 'crc': '0024:5C78BC2F'}

{'status': 'modem now OFF {modem-off}', 'mode': '{modem-off}', 'requested': 39, 'crc': '0025:45638D6E'}

{'status': 'modem now OFF {modem-off}', 'mode': '{modem-off}', 'requested': 40, 'crc': '0026:91EE20A2'}

{'status': 'modem now OFF {modem-off}', 'mode': '{modem-off}', 'requested': 41, 'crc': '0027:88F511E3'}

{'mode': '{modem-off}', 'time': 1710417229, 'completed': 1, 'crc': '0028:12B8A9CA'}

Sent data from Ami-Trap to Notehub.

{'info': {'data.qo': {}, 'binary.qo': {}, 'data.qi': {}}, 'crc': '0029:7CF1BAC9'}

No inbound changes.

                                                                                                                              [xxxx-xx-xx xx:xx:xx] Witty Pi daemon (v4.13) is started.
[xxxx-xx-xx xx:xx:xx] Running on Raspberry Pi 4 Model B Rev 1.5
[xxxx-xx-xx xx:xx:xx] Seems RTC has good time, write RTC time into system
[xxxx-xx-xx xx:xx:xx] Writing RTC time to system...
[2019-02-19 09:01:36] Done :-)
[2019-02-19 09:01:36] Firmware ID: 0x37
[2019-02-19 09:01:36] Firmware Revison: 0x05
[2019-02-19 09:01:36] Current Vout=5.21V, Iout=0.21A
[2019-02-19 09:01:36] System starts up because USB 5V is connected.
[2019-02-19 09:01:41] Send out the SYS_UP signal via GPIO-17 pin.
[2019-02-19 09:01:42] Pending for incoming shutdown command...
[2019-02-19 09:01:42] File "schedule.wpi" not found, skip running schedule script.
{
    "os_time": {
        "os_time": 1550566903.2649734,
        "timezone": "GMT"
    },
    "camera": {
        "connected": false,
        "id": "",
        "config": {
            "brightness": "300",
            "focus_auto": "2",
            "focus_absolute": "200",
            "exposure_auto": "3",
            "exposure_absolute": "320",
            "zoom_absolute": "400",
            "white_balance_temperature_auto": "3",
            "white_balance_temperature": "7000",
            "sharpness": "35",
            "contrast": "20"
        }
    },
    "memory": {
        "ssd_connected": false,
        "picture_count": 2745,
        "last_picture_timestamp": 1710352740.4699836,
        "last_picture_size": 147865,
        "picture_count_last_24h": 459,
        "picture_count_last_24h_below_200kb": 459,
        "free_memory": 55734571008
    },
    "bluetooth": {
        "powered": true,
        "enabled": true
    },
    "temperature": 24.875
}

{'total': 2, 'crc': '0001:3EE67BF0'}

{'crc': '0002:A3A6BF43'}

{'status': 'waiting for wireless service 13 sec [+---] {cell-registration-wait}', 'mode': '{cell-registered}', 'sync': True, 'requested': 1, 'crc': '0003:AA92769B'}

{'status': 'waiting for wireless service 13 sec [+---] {cell-registration-wait}', 'mode': '{cell-registered}', 'sync': True, 'requested': 1, 'crc': '0004:AA92769B'}

{'status': 'waiting for wireless service 13 sec [+---] {cell-registration-wait}', 'mode': '{cell-registered}', 'sync': True, 'requested': 2, 'crc': '0005:81BF2558'}

{'status': 'waiting for wireless service 13 sec [+---] {cell-registration-wait}', 'mode': '{cell-registered}', 'sync': True, 'requested': 3, 'crc': '0006:98A41419'}

{'status': 'waiting for wireless service 13 sec [+---] {cell-registration-wait}', 'mode': '{cell-registered}', 'sync': True, 'requested': 4, 'crc': '0007:D7E582DE'}

{'status': 'waiting for wireless service 13 sec [+---] {cell-registration-wait}', 'mode': '{cell-registered}', 'sync': True, 'requested': 5, 'crc': '0008:CEFEB39F'}

{'status': 'waiting for wireless service 13 sec [+---] {cell-registration-wait}', 'mode': '{cell-registered}', 'sync': True, 'requested': 6, 'crc': '0009:E5D3E05C'}

{'status': 'waiting for wireless service 13 sec [+---] {cell-registration-wait}', 'mode': '{cell-registered}', 'sync': True, 'requested': 7, 'crc': '000A:FCC8D11D'}

{'status': 'opening unidirectionally-authenticated secure session to a.notefile.net:8086 {socket-open-session}', 'mode': '{network-up}', 'sync': True, 'requested': 9, 'crc': '000B:C5F839C3'}

{'status': 'connecting to 10.0.2.10:8086 {socket-connecting}', 'mode': '{network-up}', 'sync': True, 'requested': 10, 'crc': '000C:005946E3'}

{'status': 'connect using TLS {socket-tls-connecting}', 'mode': '{network-up}', 'sync': True, 'requested': 11, 'crc': '000D:6541EC10'}

{'status': 'connect using TLS {socket-tls-connecting}', 'mode': '{network-up}', 'sync': True, 'requested': 12, 'crc': '000E:4E6CBFD3'}

{'status': 'session opened {socket-opened-session}', 'mode': '{network-up}', 'sync': True, 'requested': 13, 'crc': '000F:6B0924D6'}

{'status': 'begin (anything pending) {sync-begin}', 'mode': '{network-up}', 'sync': True, 'requested': 14, 'crc': '0010:506B1F92'}

{'status': 'Notebox open PPP (sent:0 rcvd:0) {socket-ip-init}', 'mode': '{network-up}', 'sync': True, 'requested': 15, 'crc': '0011:61361338'}

{'status': 'connecting to 10.0.34.7:20797 {socket-connecting}', 'mode': '{network-up}', 'sync': True, 'requested': 16, 'crc': '0012:76F82B8E'}

{'status': 'connect using TLS {socket-tls-connecting}', 'mode': '{network-up}', 'sync': True, 'requested': 18, 'crc': '0013:B4835759'}

{'status': 'connect using TLS {socket-tls-connecting}', 'mode': '{network-up}', 'sync': True, 'requested': 19, 'crc': '0014:AD986618'}

{'status': 'upload-notebox (20 changes) {sync-get-local-changes}', 'mode': '{network-up}', 'sync': True, 'requested': 20, 'crc': '0015:0157A6D7'}

{'status': 'upload _env.dbs (4 changes) {sync-get-local-changes}', 'mode': '{network-up}', 'sync': True, 'requested': 21, 'crc': '0016:BAC78CD0'}

{'status': 'upload _health.qo (1 changes) {sync-get-local-changes}', 'mode': '{network-up}', 'sync': True, 'requested': 22, 'crc': '0017:6861B94A'}

{'status': 'download _env.dbs (4 changes) {sync-get-remote-changes}', 'mode': '{network-up}', 'requested': 24, 'crc': '0018:769CBE97'}

{'status': 'download _env.dbs (4 changes) {sync-get-remote-changes}', 'mode': '{network-up}', 'requested': 25, 'crc': '0019:6F878FD6'}

{'status': 'download _env.dbs (4 changes) {sync-get-remote-changes}', 'mode': '{network-up}', 'requested': 26, 'crc': '001A:44AADC15'}

{'status': 'closed notehub {notehub-disconnected}', 'mode': '{network-up}', 'requested': 27, 'crc': '001B:C1256D90'}

{'status': 'idle {disconnected} {transport}', 'mode': '{modem-on}', 'requested': 28, 'crc': '001C:717CAF68'}

{'status': 'idle {disconnected} {transport}', 'mode': '{modem-on}', 'requested': 29, 'crc': '001D:68679E29'}

{'status': 'idle {disconnected} {transport}', 'mode': '{modem-on}', 'requested': 30, 'crc': '001E:B8674F57'}

{'status': 'idle {disconnected} {transport}', 'mode': '{modem-on}', 'requested': 31, 'crc': '001F:A17C7E16'}

{'status': 'idle {disconnected} {transport}', 'mode': '{modem-on}', 'requested': 33, 'crc': '0020:934A1C94'}

{'status': 'idle {disconnected} {transport}', 'mode': '{modem-on}', 'requested': 34, 'crc': '0021:DC0B8A53'}

{'status': 'idle {disconnected} {transport}', 'mode': '{modem-on}', 'requested': 35, 'crc': '0022:C510BB12'}

{'status': 'idle {disconnected} {transport}', 'mode': '{modem-on}', 'requested': 36, 'crc': '0023:EE3DE8D1'}

{'status': 'modem now OFF {modem-off}', 'mode': '{modem-off}', 'requested': 37, 'crc': '0024:DBE0A0E0'}

{'status': 'modem now OFF {modem-off}', 'mode': '{modem-off}', 'requested': 38, 'crc': '0025:5C78BC2F'}

{'status': 'modem now OFF {modem-off}', 'mode': '{modem-off}', 'requested': 39, 'crc': '0026:45638D6E'}

{'status': 'modem now OFF {modem-off}', 'mode': '{modem-off}', 'requested': 40, 'crc': '0027:91EE20A2'}

{'status': 'modem now OFF {modem-off}', 'mode': '{modem-off}', 'requested': 41, 'crc': '0028:88F511E3'}

{'mode': '{modem-off}', 'time': 1710584266, 'completed': 1, 'crc': '0029:2B6A01FC'}

Sent data from Ami-Trap to Notehub.

{'info': {'data.qi': {}, 'data.qo': {}, 'binary.qo': {}}, 'crc': '002A:C333E87F'}

No inbound changes.

[2019-02-19 12:19:07] Shutting down system because button is clicked or GPIO-4 is pulled down.
Shutting down in 20 seconds...
[xxxx-xx-xx xx:xx:xx] Witty Pi daemon (v4.13) is started.
[xxxx-xx-xx xx:xx:xx] Running on Raspberry Pi 4 Model B Rev 1.5
[xxxx-xx-xx xx:xx:xx] Seems RTC has good time, write RTC time into system
[xxxx-xx-xx xx:xx:xx] Writing RTC time to system...
[2019-02-21 08:28:35] Done :-)
[2019-02-21 08:28:35] Firmware ID: 0x37
[2019-02-21 08:28:35] Firmware Revison: 0x05
[2019-02-21 08:28:35] Current Vout=5.2V, Iout=0.34A
[2019-02-21 08:28:35] System starts up because USB 5V is connected.
[2019-02-21 08:28:40] Send out the SYS_UP signal via GPIO-17 pin.
[2019-02-21 08:28:40] File "schedule.wpi" not found, skip running schedule script.
[2019-02-21 08:28:40] Pending for incoming shutdown command...
{
    "os_time": {
        "os_time": 1550737721.9132686,
        "timezone": "GMT"
    },
    "camera": {
        "connected": false,
        "id": "",
        "config": {
            "brightness": "300",
            "focus_auto": "2",
            "focus_absolute": "200",
            "exposure_auto": "3",
            "exposure_absolute": "320",
            "zoom_absolute": "400",
            "white_balance_temperature_auto": "3",
            "white_balance_temperature": "7000",
            "sharpness": "35",
            "contrast": "20"
        }
    },
    "memory": {
        "ssd_connected": false,
        "picture_count": 2943,
        "last_picture_timestamp": 1710352740.4699836,
        "last_picture_size": 147865,
        "picture_count_last_24h": 459,
        "picture_count_last_24h_below_200kb": 459,
        "free_memory": 55704465408
    },
    "bluetooth": {
        "powered": true,
        "enabled": true
    },
    "temperature": 22.0625
}

{'total': 1, 'crc': '0001:15CB2833'}

{'crc': '0002:A3A6BF43'}

{'status': 'waiting for wireless service 17 sec [----] {cell-registration-wait}', 'mode': '{cell-registration-wait}', 'sync': True, 'requested': 1, 'crc': '0003:B9EBABAB'}

{'status': 'waiting for wireless service 19 sec [----] {cell-registration-wait}', 'mode': '{cell-registration-wait}', 'sync': True, 'requested': 1, 'crc': '0004:2DCAB2F0'}

{'status': 'waiting for wireless service 20 sec [----] {cell-registration-wait}', 'mode': '{cell-registration-wait}', 'sync': True, 'requested': 2, 'crc': '0005:ABCEBC42'}

{'status': 'waiting for wireless service 20 sec [----] {cell-registration-wait}', 'mode': '{cell-registration-wait}', 'sync': True, 'requested': 3, 'crc': '0006:B2D58D03'}

{'status': 'waiting for wireless service 21 sec [----] {cell-registration-wait}', 'mode': '{cell-registration-wait}', 'sync': True, 'requested': 4, 'crc': '0007:08F11A06'}

{'status': 'waiting for wireless service 21 sec [----] {cell-registration-wait}', 'mode': '{cell-registration-wait}', 'sync': True, 'requested': 5, 'crc': '0008:11EA2B47'}

{'status': 'waiting for wireless service 24 sec [----] {cell-registration-wait}', 'mode': '{cell-registration-wait}', 'sync': True, 'requested': 6, 'crc': '0009:ACD472CC'}

{'status': 'waiting for wireless service 24 sec [----] {cell-registration-wait}', 'mode': '{cell-registration-wait}', 'sync': True, 'requested': 7, 'crc': '000A:B5CF438D'}

{'status': 'waiting for wireless service 26 sec [----] {cell-registration-wait}', 'mode': '{cell-registration-wait}', 'sync': True, 'requested': 8, 'crc': '000B:03EC5A87'}

{'status': 'waiting for wireless service 26 sec [----] {cell-registration-wait}', 'mode': '{cell-registration-wait}', 'sync': True, 'requested': 10, 'crc': '000C:C56F1212'}

{'status': 'waiting for wireless service 28 sec [----] {cell-registration-wait}', 'mode': '{cell-registration-wait}', 'sync': True, 'requested': 11, 'crc': '000D:20598A36'}

{'status': 'waiting for wireless service 28 sec [----] {cell-registration-wait}', 'mode': '{cell-registration-wait}', 'sync': True, 'requested': 12, 'crc': '000E:0B74D9F5'}

{'status': 'waiting for wireless service 31 sec [----] {cell-registration-wait}', 'mode': '{cell-registration-wait}', 'sync': True, 'requested': 13, 'crc': '000F:F327667C'}

{'status': 'waiting for wireless service 31 sec [----] {cell-registration-wait}', 'mode': '{cell-registration-wait}', 'sync': True, 'requested': 14, 'crc': '0010:BC66F0BB'}

{'status': 'waiting for wireless service 33 sec [----] {cell-registration-wait}', 'mode': '{cell-registration-wait}', 'sync': True, 'requested': 15, 'crc': '0011:4E424CC0'}

{'status': 'waiting for wireless service 33 sec [----] {cell-registration-wait}', 'mode': '{cell-registration-wait}', 'sync': True, 'requested': 16, 'crc': '0012:656F1F03'}

{'status': 'waiting for wireless service 33 sec [----] {cell-registration-wait}', 'mode': '{cell-registration-wait}', 'sync': True, 'requested': 17, 'crc': '0013:7C742E42'}

Traceback (most recent call last):
  File "/home/pi/ami_setup-cellular-dev/ami-trap-raspi-cellular-send_and_receive.py", line 7, in <module>
    asyncio.run(cellular_send_and_receive())
  File "/usr/lib/python3.7/asyncio/runners.py", line 43, in run
    return loop.run_until_complete(main)
  File "/usr/lib/python3.7/asyncio/base_events.py", line 584, in run_until_complete
    return future.result()
  File "/home/pi/ami_setup-cellular-dev/amitrap_cellular.py", line 431, in cellular_send_and_receive
    if not _sync_and_print_status(nCard):
  File "/home/pi/ami_setup-cellular-dev/amitrap_cellular.py", line 152, in _sync_and_print_status
    status = hub.syncStatus(nCard)
  File "/usr/local/lib/python3.7/dist-packages/notecard/validators.py", line 22, in wrap_validator
    return func(*args, **kwargs)
  File "/usr/local/lib/python3.7/dist-packages/notecard/hub.py", line 99, in syncStatus
    return card.Transaction(req)
  File "/usr/local/lib/python3.7/dist-packages/notecard/notecard.py", line 326, in Transaction
    if self._crc_error(rsp_bytes):
  File "/usr/local/lib/python3.7/dist-packages/notecard/notecard.py", line 157, in _crc_error
    rsp_json = json.loads(rsp_bytes)
  File "/usr/lib/python3.7/json/__init__.py", line 348, in loads
    return _default_decoder.decode(s)
  File "/usr/lib/python3.7/json/decoder.py", line 337, in decode
    obj, end = self.raw_decode(s, idx=_w(s, 0).end())
  File "/usr/lib/python3.7/json/decoder.py", line 355, in raw_decode
    raise JSONDecodeError("Expecting value", s, err.value) from None
json.decoder.JSONDecodeError: Expecting value: line 2 column 1 (char 2)
                                                                                                                              [xxxx-xx-xx xx:xx:xx] Witty Pi daemon (v4.13) is started.
[xxxx-xx-xx xx:xx:xx] Running on Raspberry Pi 4 Model B Rev 1.5
[xxxx-xx-xx xx:xx:xx] Witty Pi is not detected, retry in one second...
[xxxx-xx-xx xx:xx:xx] Witty Pi is not detected, retry in one second...
[xxxx-xx-xx xx:xx:xx] Witty Pi is not detected, retry in one second...
[xxxx-xx-xx xx:xx:xx] Witty Pi is not detected, retry in one second...
[xxxx-xx-xx xx:xx:xx] Witty Pi is not detected, retry in one second...
[xxxx-xx-xx xx:xx:xx] Witty Pi is not connected, skip I2C communications...
<2019-02-14 10:12:17> Witty Pi is not connected, skip schedule script...
<2019-02-14 10:12:17> Send out the SYS_UP signal via GPIO-17 pin.
<2019-02-14 10:12:18> Pending for incoming shutdown command...
{
    "os_time": {
        "os_time": 1550139138.7747657,
        "timezone": "GMT"
    },
    "camera": {
        "connected": false,
        "id": "",
        "config": {
            "brightness": "300",
            "focus_auto": "2",
            "focus_absolute": "200",
            "exposure_auto": "3",
            "exposure_absolute": "320",
            "zoom_absolute": "400",
            "white_balance_temperature_auto": "3",
            "white_balance_temperature": "7000",
            "sharpness": "35",
            "contrast": "20"
        }
    },
    "memory": {
        "ssd_connected": false,
        "picture_count": 2953,
        "last_picture_timestamp": 1710352740.4699836,
        "last_picture_size": 147865,
        "picture_count_last_24h": 2953,
        "picture_count_last_24h_below_200kb": 2953,
        "free_memory": 55702806528
    },
    "bluetooth": {
        "powered": true,
        "enabled": true
    },
    "temperature": 20.625
}

{'total': 1, 'crc': '0001:15CB2833'}

{'crc': '0002:A3A6BF43'}

{'status': 'Notebox open PPP (sent:0 rcvd:0) {socket-ip-init}', 'mode': '{network-up}', 'sync': True, 'requested': 2, 'crc': '0003:01AC01E4'}

{'status': 'connect using TLS {socket-tls-connecting}', 'mode': '{network-up}', 'sync': True, 'requested': 3, 'crc': '0004:B303C93A'}

{'status': 'connect using TLS {socket-tls-connecting}', 'mode': '{network-up}', 'sync': True, 'requested': 5, 'crc': '0005:E5596EBC'}

{'status': 'upload-notebox (20 changes) {sync-get-local-changes}', 'mode': '{network-up}', 'sync': True, 'requested': 6, 'crc': '0006:EFBC5933'}

{'status': 'upload _env.dbs (4 changes) {sync-get-local-changes}', 'mode': '{network-up}', 'sync': True, 'requested': 7, 'crc': '0007:1ACD5C51'}

{'status': 'upload data.qo (1 changes) {sync-get-local-changes}', 'mode': '{network-up}', 'sync': True, 'requested': 9, 'crc': '0008:BE436AE1'}

{'status': 'download _env.dbs (4 changes) {sync-get-remote-changes}', 'mode': '{network-up}', 'requested': 10, 'crc': '0009:10B6C5CA'}

{'status': 'download _env.dbs (4 changes) {sync-get-remote-changes}', 'mode': '{network-up}', 'requested': 11, 'crc': '000A:09ADF48B'}

{'status': 'download _env.dbs (4 changes) {sync-get-remote-changes}', 'mode': '{network-up}', 'requested': 12, 'crc': '000B:2280A748'}

{'status': 'closed notehub {notehub-disconnected}', 'mode': '{network-up}', 'requested': 13, 'crc': '000C:A70F16CD'}

{'status': 'idle {disconnected} {transport}', 'mode': '{modem-on}', 'requested': 14, 'crc': '000D:DF8F5E3D'}

{'status': 'idle {disconnected} {transport}', 'mode': '{modem-on}', 'requested': 15, 'crc': '000E:C6946F7C'}

{'status': 'idle {disconnected} {transport}', 'mode': '{modem-on}', 'requested': 16, 'crc': '000F:EDB93CBF'}

{'status': 'idle {disconnected} {transport}', 'mode': '{modem-on}', 'requested': 17, 'crc': '0010:F4A20DFE'}

{'status': 'idle {disconnected} {transport}', 'mode': '{modem-on}', 'requested': 19, 'crc': '0011:6A212070'}

{'status': 'idle {disconnected} {transport}', 'mode': '{modem-on}', 'requested': 20, 'crc': '0012:B9A52560'}

{'status': 'idle {disconnected} {transport}', 'mode': '{modem-on}', 'requested': 21, 'crc': '0013:A0BE1421'}

{'status': 'idle {disconnected} {transport}', 'mode': '{modem-on}', 'requested': 22, 'crc': '0014:8B9347E2'}

{'status': 'modem now OFF {modem-off}', 'mode': '{modem-off}', 'requested': 23, 'crc': '0015:BE4E0FD3'}

{'status': 'modem now OFF {modem-off}', 'mode': '{modem-off}', 'requested': 24, 'crc': '0016:F10F9914'}

{'status': 'modem now OFF {modem-off}', 'mode': '{modem-off}', 'requested': 25, 'crc': '0017:E814A855'}

{'status': 'modem now OFF {modem-off}', 'mode': '{modem-off}', 'requested': 26, 'crc': '0018:C339FB96'}

{'status': 'modem now OFF {modem-off}', 'mode': '{modem-off}', 'requested': 27, 'crc': '0019:DA22CAD7'}

{'status': 'starting communications {wait-module} {connecting} {transport}', 'mode': '{modem-off}', 'requested': 29, 'crc': '001A:0CD069B8'}

{'status': 'starting communications {wait-module} {connecting} {transport}', 'mode': '{modem-off}', 'requested': 30, 'crc': '001B:DCD0B8C6'}

{'status': 'starting communications {wait-module} {connecting} {transport}', 'mode': '{modem-off}', 'requested': 31, 'crc': '001C:C5CB8987'}

{'status': 'starting communications {wait-module} {connecting} {transport}', 'mode': '{modem-on}', 'requested': 32, 'crc': '001D:672BB6B5'}

{'status': 'modem now ON {modem-on}', 'mode': '{modem-on}', 'requested': 33, 'crc': '001E:52088759'}

{'status': 'modem now ON {modem-on}', 'mode': '{modem-on}', 'requested': 34, 'crc': '001F:1D49119E'}

{'status': 'modem now ON {modem-on}', 'mode': '{modem-on}', 'requested': 35, 'crc': '0020:045220DF'}

{'status': 'modem now ON {modem-on}', 'mode': '{modem-on}', 'requested': 37, 'crc': '0021:3664425D'}

{'status': 'modem now ON {modem-on}', 'mode': '{modem-on}', 'requested': 38, 'crc': '0022:B1FC5E92'}

{'status': 'modem now ON {modem-on}', 'mode': '{modem-on}', 'requested': 39, 'crc': '0023:A8E76FD3'}

{'status': 'modem now ON {modem-on}', 'mode': '{modem-on}', 'requested': 40, 'crc': '0024:7C6AC21F'}

{'status': 'modem now ON {modem-on}', 'mode': '{modem-on}', 'requested': 42, 'crc': '0025:4E5CA09D'}

{'status': 'modem now ON {modem-on}', 'mode': '{modem-on}', 'requested': 43, 'crc': '0026:574791DC'}

{'status': 'waiting for wireless service {wait-service} {connecting} {transport}', 'mode': '{modem-on}', 'requested': 44, 'crc': '0027:557D2C30'}

{'status': 'waiting for wireless service 5 sec [----] {cell-registration-wait}', 'mode': '{cell-registration-wait}', 'requested': 45, 'crc': '0028:0D12EE6C'}

{'status': 'connecting to 10.0.2.14:30379 {socket-connecting}', 'mode': '{network-up}', 'requested': 46, 'crc': '0029:F0C5E0C8'}

{'status': 'closed notehub {notehub-disconnected}', 'mode': '{network-up}', 'requested': 48, 'crc': '002A:42300DED'}

{'status': 'idle {disconnected} {transport}', 'mode': '{modem-on}', 'requested': 49, 'crc': '002B:6CEAE29B'}

{'status': 'idle {disconnected} {transport}', 'mode': '{modem-on}', 'requested': 50, 'crc': '002C:BCEA33E5'}

{'status': 'idle {disconnected} {transport}', 'mode': '{modem-on}', 'requested': 51, 'crc': '002D:A5F102A4'}

{'status': 'idle {disconnected} {transport}', 'mode': '{modem-on}', 'requested': 52, 'crc': '002E:8EDC5167'}

{'status': 'idle {disconnected} {transport}', 'mode': '{modem-on}', 'requested': 53, 'crc': '002F:97C76026'}

{'status': 'idle {disconnected} {transport}', 'mode': '{modem-on}', 'requested': 54, 'crc': '0030:D886F6E1'}

{'status': 'idle {disconnected} {transport}', 'mode': '{modem-on}', 'requested': 55, 'crc': '0031:C19DC7A0'}

{'status': 'idle {disconnected} {transport}', 'mode': '{modem-on}', 'requested': 56, 'crc': '0032:EAB09463'}

{'status': 'modem now OFF {modem-off}', 'mode': '{modem-off}', 'requested': 57, 'crc': '0033:DF6DDC52'}

{'status': 'modem now OFF {modem-off}', 'mode': '{modem-off}', 'requested': 59, 'crc': '0034:41EEF1DC'}

{'status': 'modem now OFF {modem-off}', 'mode': '{modem-off}', 'requested': 60, 'crc': '0035:926AF4CC'}

{'status': 'modem now OFF {modem-off}', 'mode': '{modem-off}', 'requested': 61, 'crc': '0036:8B71C58D'}

{'status': 'modem now OFF {modem-off}', 'mode': '{modem-off}', 'requested': 62, 'crc': '0037:A05C964E'}

{'mode': '{modem-off}', 'bytes_sent': 590, 'bytes_received': 226, 'time': 1710850378, 'completed': 1, 'duration': 29, 'crc': '0038:DF7C8C8A'}

Sent data from Ami-Trap to Notehub.

{'info': {'data.qi': {}, 'data.qo': {}, 'binary.qo': {}}, 'crc': '0039:C333E87F'}

No inbound changes.

[xxxx-xx-xx xx:xx:xx] Witty Pi daemon (v4.13) is started.
[xxxx-xx-xx xx:xx:xx] Running on Raspberry Pi 4 Model B Rev 1.5
[xxxx-xx-xx xx:xx:xx] Seems RTC has good time, write RTC time into system
[xxxx-xx-xx xx:xx:xx] Writing RTC time to system...
[2019-02-22 11:10:34] Done :-)
[2019-02-22 11:10:34] Firmware ID: 0x37
[2019-02-22 11:10:34] Firmware Revison: 0x05
[2019-02-22 11:10:34] Current Vout=5.26V, Iout=0.58A
[2019-02-22 11:10:34] System starts up because USB 5V is connected.
[2019-02-22 11:10:39] Send out the SYS_UP signal via GPIO-17 pin.
[2019-02-22 11:10:40] File "schedule.wpi" not found, skip running schedule script.
[2019-02-22 11:10:40] Pending for incoming shutdown command...
{
    "os_time": {
        "os_time": 1550833840.8971293,
        "timezone": "GMT"
    },
    "camera": {
        "connected": false,
        "id": "",
        "config": {
            "brightness": "300",
            "focus_auto": "2",
            "focus_absolute": "200",
            "exposure_auto": "3",
            "exposure_absolute": "320",
            "zoom_absolute": "400",
            "white_balance_temperature_auto": "3",
            "white_balance_temperature": "7000",
            "sharpness": "35",
            "contrast": "20"
        }
    },
    "memory": {
        "ssd_connected": false,
        "picture_count": 2961,
        "last_picture_timestamp": 1710352740.4699836,
        "last_picture_size": 147865,
        "picture_count_last_24h": 459,
        "picture_count_last_24h_below_200kb": 459,
        "free_memory": 55701614592
    },
    "bluetooth": {
        "powered": true,
        "enabled": true
    },
    "temperature": 26.5
}

{'total': 1, 'crc': '0001:15CB2833'}

{'crc': '0002:A3A6BF43'}

{'status': 'connecting to 10.0.66.5:31566 {socket-connecting}', 'mode': '{network-up}', 'sync': True, 'requested': 1, 'crc': '0003:10F427EF'}

{'status': 'Notebox open PPP (sent:0 rcvd:0) {socket-ip-init}', 'mode': '{network-up}', 'sync': True, 'requested': 1, 'crc': '0004:2A815227'}

{'status': 'Notebox open PPP (sent:0 rcvd:0) {socket-ip-init}', 'mode': '{network-up}', 'sync': True, 'requested': 2, 'crc': '0005:01AC01E4'}

{'status': 'connect using TLS {socket-tls-connecting}', 'mode': '{network-up}', 'sync': True, 'requested': 3, 'crc': '0006:B303C93A'}

{'status': 'connect using TLS {socket-tls-connecting}', 'mode': '{network-up}', 'sync': True, 'requested': 5, 'crc': '0007:E5596EBC'}

{'status': 'upload-notebox (20 changes) {sync-get-local-changes}', 'mode': '{network-up}', 'sync': True, 'requested': 6, 'crc': '0008:EFBC5933'}

{'status': 'upload _env.dbs (4 changes) {sync-get-local-changes}', 'mode': '{network-up}', 'sync': True, 'requested': 7, 'crc': '0009:1ACD5C51'}

{'status': 'upload _health.qo (1 changes) {sync-get-local-changes}', 'mode': '{network-up}', 'sync': True, 'requested': 8, 'crc': '000A:AFEC7602'}

{'status': 'upload data.qo (1 changes) {sync-get-local-changes}', 'mode': '{network-up}', 'requested': 9, 'crc': '000B:49332788'}

{'status': 'download _env.dbs (4 changes) {sync-get-remote-changes}', 'mode': '{network-up}', 'requested': 11, 'crc': '000C:09ADF48B'}

{'status': 'download _env.dbs (4 changes) {sync-get-remote-changes}', 'mode': '{network-up}', 'requested': 12, 'crc': '000D:2280A748'}

{'status': 'closed notehub {notehub-disconnected}', 'mode': '{network-up}', 'requested': 13, 'crc': '000E:A70F16CD'}

{'status': 'idle {disconnected} {transport}', 'mode': '{modem-on}', 'requested': 14, 'crc': '000F:DF8F5E3D'}

{'status': 'idle {disconnected} {transport}', 'mode': '{modem-on}', 'requested': 15, 'crc': '0010:C6946F7C'}

{'status': 'idle {disconnected} {transport}', 'mode': '{modem-on}', 'requested': 16, 'crc': '0011:EDB93CBF'}

{'status': 'idle {disconnected} {transport}', 'mode': '{modem-on}', 'requested': 17, 'crc': '0012:F4A20DFE'}

{'status': 'idle {disconnected} {transport}', 'mode': '{modem-on}', 'requested': 18, 'crc': '0013:733A1131'}

{'status': 'idle {disconnected} {transport}', 'mode': '{modem-on}', 'requested': 19, 'crc': '0014:6A212070'}

{'status': 'idle {disconnected} {transport}', 'mode': '{modem-on}', 'requested': 21, 'crc': '0015:A0BE1421'}

{'status': 'idle {disconnected} {transport}', 'mode': '{modem-on}', 'requested': 22, 'crc': '0016:8B9347E2'}

{'status': 'modem now OFF {modem-off}', 'mode': '{modem-off}', 'requested': 23, 'crc': '0017:BE4E0FD3'}

{'status': 'modem now OFF {modem-off}', 'mode': '{modem-off}', 'requested': 24, 'crc': '0018:F10F9914'}

{'status': 'modem now OFF {modem-off}', 'mode': '{modem-off}', 'requested': 25, 'crc': '0019:E814A855'}

{'status': 'modem now OFF {modem-off}', 'mode': '{modem-off}', 'requested': 26, 'crc': '001A:C339FB96'}

{'status': 'modem now OFF {modem-off}', 'mode': '{modem-off}', 'requested': 27, 'crc': '001B:DA22CAD7'}

{'mode': '{modem-off}', 'time': 1710851194, 'completed': 1, 'crc': '001C:A0C4CF6C'}

Sent data from Ami-Trap to Notehub.

{'info': {'data.qo': {}, 'binary.qo': {}, 'data.qi': {}}, 'crc': '001D:7CF1BAC9'}

No inbound changes.

                                                                                                                              [xxxx-xx-xx xx:xx:xx] Witty Pi daemon (v4.13) is started.
[xxxx-xx-xx xx:xx:xx] Running on Raspberry Pi 4 Model B Rev 1.5
[xxxx-xx-xx xx:xx:xx] Witty Pi is not detected, retry in one second...
[xxxx-xx-xx xx:xx:xx] Witty Pi is not detected, retry in one second...
[xxxx-xx-xx xx:xx:xx] Witty Pi is not detected, retry in one second...
[xxxx-xx-xx xx:xx:xx] Witty Pi is not detected, retry in one second...
[xxxx-xx-xx xx:xx:xx] Witty Pi is not detected, retry in one second...
[xxxx-xx-xx xx:xx:xx] Witty Pi is not connected, skip I2C communications...
<2019-02-14 10:12:17> Witty Pi is not connected, skip schedule script...
<2019-02-14 10:12:17> Send out the SYS_UP signal via GPIO-17 pin.
<2019-02-14 10:12:17> Pending for incoming shutdown command...
Traceback (most recent call last):
  File "/home/pi/ami_setup-cellular-dev/ami-trap-raspi-cellular-send_and_receive.py", line 7, in <module>
    asyncio.run(cellular_send_and_receive())
  File "/usr/lib/python3.7/asyncio/runners.py", line 43, in run
    return loop.run_until_complete(main)
  File "/usr/lib/python3.7/asyncio/base_events.py", line 584, in run_until_complete
    return future.result()
  File "/home/pi/ami_setup-cellular-dev/amitrap_cellular.py", line 425, in cellular_send_and_receive
    nCard = _connect_to_notecard(i2c_path)
  File "/home/pi/ami_setup-cellular-dev/amitrap_cellular.py", line 102, in _connect_to_notecard
    nCard = notecard.OpenI2C(port, 0, 0)
  File "/usr/local/lib/python3.7/dist-packages/notecard/notecard.py", line 907, in __init__
    self.Reset()
  File "/usr/local/lib/python3.7/dist-packages/notecard/notecard.py", line 815, in Reset
    raise Exception('Failed to reset Notecard.')
Exception: Failed to reset Notecard.
                                                                                                                                                                                                                                                                                                                                                                                                                                                                                                                                                                                                                                                                                                                                                                                   [xxxx-xx-xx xx:xx:xx] Witty Pi daemon (v4.13) is started.
[xxxx-xx-xx xx:xx:xx] Running on Raspberry Pi 4 Model B Rev 1.5
[xxxx-xx-xx xx:xx:xx] Witty Pi is not detected, retry in one second...
[xxxx-xx-xx xx:xx:xx] Witty Pi is not detected, retry in one second...
[xxxx-xx-xx xx:xx:xx] Witty Pi is not detected, retry in one second...
[xxxx-xx-xx xx:xx:xx] Witty Pi is not detected, retry in one second...
[xxxx-xx-xx xx:xx:xx] Witty Pi is not detected, retry in one second...
[xxxx-xx-xx xx:xx:xx] Witty Pi is not connected, skip I2C communications...
<2019-02-14 10:12:18> Witty Pi is not connected, skip schedule script...
<2019-02-14 10:12:18> Send out the SYS_UP signal via GPIO-17 pin.
<2019-02-14 10:12:18> Pending for incoming shutdown command...
Traceback (most recent call last):
  File "/home/pi/ami_setup-cellular-dev/ami-trap-raspi-cellular-send_and_receive.py", line 7, in <module>
    asyncio.run(cellular_send_and_receive())
  File "/usr/lib/python3.7/asyncio/runners.py", line 43, in run
    return loop.run_until_complete(main)
  File "/usr/lib/python3.7/asyncio/base_events.py", line 584, in run_until_complete
    return future.result()
  File "/home/pi/ami_setup-cellular-dev/amitrap_cellular.py", line 425, in cellular_send_and_receive
    nCard = _connect_to_notecard(i2c_path)
  File "/home/pi/ami_setup-cellular-dev/amitrap_cellular.py", line 102, in _connect_to_notecard
    nCard = notecard.OpenI2C(port, 0, 0)
  File "/usr/local/lib/python3.7/dist-packages/notecard/notecard.py", line 907, in __init__
    self.Reset()
  File "/usr/local/lib/python3.7/dist-packages/notecard/notecard.py", line 815, in Reset
    raise Exception('Failed to reset Notecard.')
Exception: Failed to reset Notecard.
[2019-02-14 12:51:01] Seems Witty Pi board is not connected? Quitting...
[2019-02-14 12:51:23] Seems Witty Pi board is not connected? Quitting...
<2019-02-14 12:51:34> I2C read 0x01 0x08 11 failed (result=), retrying 1 ...
<2019-02-14 12:51:34> Shutting down system because button is clicked or GPIO-4 is pulled down.
Shutting down in 20 seconds...
Traceback (most recent call last):
  File "/home/pi/ami_setup-cellular-dev/ami-trap-raspi-cellular-send.py", line 7, in <module>
    asyncio.run(cellular_send())
  File "/usr/lib/python3.7/asyncio/runners.py", line 43, in run
    return loop.run_until_complete(main)
  File "/usr/lib/python3.7/asyncio/base_events.py", line 584, in run_until_complete
    return future.result()
  File "/home/pi/ami_setup-cellular-dev/amitrap_cellular.py", line 183, in cellular_send
    nCard = _connect_to_notecard(i2c_path)
  File "/home/pi/ami_setup-cellular-dev/amitrap_cellular.py", line 102, in _connect_to_notecard
    nCard = notecard.OpenI2C(port, 0, 0)
  File "/usr/local/lib/python3.7/dist-packages/notecard/notecard.py", line 907, in __init__
    self.Reset()
  File "/usr/local/lib/python3.7/dist-packages/notecard/notecard.py", line 815, in Reset
    raise Exception('Failed to reset Notecard.')
Exception: Failed to reset Notecard.
[2019-02-14 12:51:54] I2C read 0x01 0x08 60 failed (result=), retrying 1 ...
Good Bye Thu 14 Feb 12:51:55 GMT 2019
<2019-02-14 12:51:55> Halting all processes and then shutdown Raspberry Pi...
[xxxx-xx-xx xx:xx:xx] Witty Pi daemon (v4.13) is started.
[xxxx-xx-xx xx:xx:xx] Running on Raspberry Pi 4 Model B Rev 1.5
[xxxx-xx-xx xx:xx:xx] RTC has bad time, write system time into RTC
[xxxx-xx-xx xx:xx:xx] Writing system time to RTC...
<2019-02-14 10:12:07> Done :-)
<2019-02-14 10:12:08> Firmware ID: 0x37
<2019-02-14 10:12:08> Firmware Revison: 0x05
<2019-02-14 10:12:08> Current Vout=5.19V, Iout=0.47A
<2019-02-14 10:12:08> System starts up because USB 5V is connected.
<2019-02-14 10:12:13> Send out the SYS_UP signal via GPIO-17 pin.
[2019-02-14 10:12:13] File "schedule.wpi" not found, skip running schedule script.
<2019-02-14 10:12:13> Pending for incoming shutdown command...
Traceback (most recent call last):
  File "/home/pi/ami_setup-cellular-dev/ami-trap-raspi-cellular-send_and_receive.py", line 7, in <module>
    asyncio.run(cellular_send_and_receive())
  File "/usr/lib/python3.7/asyncio/runners.py", line 43, in run
    return loop.run_until_complete(main)
  File "/usr/lib/python3.7/asyncio/base_events.py", line 584, in run_until_complete
    return future.result()
  File "/home/pi/ami_setup-cellular-dev/amitrap_cellular.py", line 425, in cellular_send_and_receive
    nCard = _connect_to_notecard(i2c_path)
  File "/home/pi/ami_setup-cellular-dev/amitrap_cellular.py", line 102, in _connect_to_notecard
    nCard = notecard.OpenI2C(port, 0, 0)
  File "/usr/local/lib/python3.7/dist-packages/notecard/notecard.py", line 907, in __init__
    self.Reset()
  File "/usr/local/lib/python3.7/dist-packages/notecard/notecard.py", line 815, in Reset
    raise Exception('Failed to reset Notecard.')
Exception: Failed to reset Notecard.
                                                                                                                              [xxxx-xx-xx xx:xx:xx] Witty Pi daemon (v4.13) is started.
[xxxx-xx-xx xx:xx:xx] Running on Raspberry Pi 4 Model B Rev 1.5
[xxxx-xx-xx xx:xx:xx] Seems RTC has good time, write RTC time into system
[xxxx-xx-xx xx:xx:xx] Writing RTC time to system...
[2019-02-14 10:17:07] Done :-)
[2019-02-14 10:17:07] Firmware ID: 0x37
[2019-02-14 10:17:07] Firmware Revison: 0x05
[2019-02-14 10:17:07] Current Vout=5.14V, Iout=0.36A
[2019-02-14 10:17:07] System starts up because the button is clicked.
[2019-02-14 10:17:12] Send out the SYS_UP signal via GPIO-17 pin.
[2019-02-14 10:17:12] Pending for incoming shutdown command...
[2019-02-14 10:17:12] File "schedule.wpi" not found, skip running schedule script.
Traceback (most recent call last):
  File "/home/pi/ami_setup-cellular-dev/ami-trap-raspi-cellular-send_and_receive.py", line 7, in <module>
    asyncio.run(cellular_send_and_receive())
  File "/usr/lib/python3.7/asyncio/runners.py", line 43, in run
    return loop.run_until_complete(main)
  File "/usr/lib/python3.7/asyncio/base_events.py", line 584, in run_until_complete
    return future.result()
  File "/home/pi/ami_setup-cellular-dev/amitrap_cellular.py", line 425, in cellular_send_and_receive
    nCard = _connect_to_notecard(i2c_path)
  File "/home/pi/ami_setup-cellular-dev/amitrap_cellular.py", line 102, in _connect_to_notecard
    nCard = notecard.OpenI2C(port, 0, 0)
  File "/usr/local/lib/python3.7/dist-packages/notecard/notecard.py", line 907, in __init__
    self.Reset()
  File "/usr/local/lib/python3.7/dist-packages/notecard/notecard.py", line 815, in Reset
    raise Exception('Failed to reset Notecard.')
Exception: Failed to reset Notecard.
                                                                                                                                                                                         [xxxx-xx-xx xx:xx:xx] Witty Pi daemon (v4.13) is started.
[xxxx-xx-xx xx:xx:xx] Running on Raspberry Pi 4 Model B Rev 1.5
[xxxx-xx-xx xx:xx:xx] Seems RTC has good time, write RTC time into system
[xxxx-xx-xx xx:xx:xx] Writing RTC time to system...
[2019-02-14 10:24:35] Done :-)
[2019-02-14 10:24:35] Firmware ID: 0x37
[2019-02-14 10:24:35] Firmware Revison: 0x05
[2019-02-14 10:24:35] Current Vout=5.19V, Iout=0.45A
[2019-02-14 10:24:35] System starts up because USB 5V is connected.
[2019-02-14 10:24:40] Send out the SYS_UP signal via GPIO-17 pin.
[2019-02-14 10:24:40] File "schedule.wpi" not found, skip running schedule script.
[2019-02-14 10:24:40] Pending for incoming shutdown command...
Traceback (most recent call last):
  File "/home/pi/ami_setup-cellular-dev/ami-trap-raspi-cellular-send_and_receive.py", line 7, in <module>
    asyncio.run(cellular_send_and_receive())
  File "/usr/lib/python3.7/asyncio/runners.py", line 43, in run
    return loop.run_until_complete(main)
  File "/usr/lib/python3.7/asyncio/base_events.py", line 584, in run_until_complete
    return future.result()
  File "/home/pi/ami_setup-cellular-dev/amitrap_cellular.py", line 425, in cellular_send_and_receive
    nCard = _connect_to_notecard(i2c_path)
  File "/home/pi/ami_setup-cellular-dev/amitrap_cellular.py", line 102, in _connect_to_notecard
    nCard = notecard.OpenI2C(port, 0, 0)
  File "/usr/local/lib/python3.7/dist-packages/notecard/notecard.py", line 907, in __init__
    self.Reset()
  File "/usr/local/lib/python3.7/dist-packages/notecard/notecard.py", line 815, in Reset
    raise Exception('Failed to reset Notecard.')
Exception: Failed to reset Notecard.
                                                                                                                                [xxxx-xx-xx xx:xx:xx] Witty Pi daemon (v4.13) is started.
[xxxx-xx-xx xx:xx:xx] Running on Raspberry Pi 4 Model B Rev 1.5
[xxxx-xx-xx xx:xx:xx] Seems RTC has good time, write RTC time into system
[xxxx-xx-xx xx:xx:xx] Writing RTC time to system...
[2019-02-14 10:31:14] Done :-)
[2019-02-14 10:31:14] Firmware ID: 0x37
[2019-02-14 10:31:14] Firmware Revison: 0x05
[2019-02-14 10:31:14] Current Vout=5.2V, Iout=0.45A
[2019-02-14 10:31:14] System starts up because USB 5V is connected.
[2019-02-14 10:31:19] Send out the SYS_UP signal via GPIO-17 pin.
[2019-02-14 10:31:19] File "schedule.wpi" not found, skip running schedule script.
[2019-02-14 10:31:19] Pending for incoming shutdown command...
Traceback (most recent call last):
  File "/home/pi/ami_setup-cellular-dev/ami-trap-raspi-cellular-send_and_receive.py", line 7, in <module>
    asyncio.run(cellular_send_and_receive())
  File "/usr/lib/python3.7/asyncio/runners.py", line 43, in run
    return loop.run_until_complete(main)
  File "/usr/lib/python3.7/asyncio/base_events.py", line 584, in run_until_complete
    return future.result()
  File "/home/pi/ami_setup-cellular-dev/amitrap_cellular.py", line 425, in cellular_send_and_receive
    nCard = _connect_to_notecard(i2c_path)
  File "/home/pi/ami_setup-cellular-dev/amitrap_cellular.py", line 102, in _connect_to_notecard
    nCard = notecard.OpenI2C(port, 0, 0)
  File "/usr/local/lib/python3.7/dist-packages/notecard/notecard.py", line 907, in __init__
    self.Reset()
  File "/usr/local/lib/python3.7/dist-packages/notecard/notecard.py", line 815, in Reset
    raise Exception('Failed to reset Notecard.')
Exception: Failed to reset Notecard.
                                                                                                                                [xxxx-xx-xx xx:xx:xx] Witty Pi daemon (v4.13) is started.
[xxxx-xx-xx xx:xx:xx] Running on Raspberry Pi 4 Model B Rev 1.5
[xxxx-xx-xx xx:xx:xx] Seems RTC has good time, write RTC time into system
[xxxx-xx-xx xx:xx:xx] Writing RTC time to system...
[2019-02-14 10:33:45] Done :-)
[2019-02-14 10:33:45] Firmware ID: 0x37
[2019-02-14 10:33:45] Firmware Revison: 0x05
[2019-02-14 10:33:45] Current Vout=5.2V, Iout=0.36A
[2019-02-14 10:33:45] System starts up because USB 5V is connected.
[2019-02-14 10:33:50] Send out the SYS_UP signal via GPIO-17 pin.
[2019-02-14 10:33:50] File "schedule.wpi" not found, skip running schedule script.
[2019-02-14 10:33:50] Pending for incoming shutdown command...
[2019-02-14 10:34:09] Shutting down system because input voltge is too low: Vin=4.12V, Vlow=4.2V
Shutting down in 20 seconds...
[xxxx-xx-xx xx:xx:xx] Witty Pi daemon (v4.13) is started.
[xxxx-xx-xx xx:xx:xx] Running on Raspberry Pi 4 Model B Rev 1.5
[xxxx-xx-xx xx:xx:xx] Seems RTC has good time, write RTC time into system
[xxxx-xx-xx xx:xx:xx] Writing RTC time to system...
[2019-02-14 10:34:51] Done :-)
[2019-02-14 10:34:51] Firmware ID: 0x37
[2019-02-14 10:34:51] Firmware Revison: 0x05
[2019-02-14 10:34:51] Current Vout=5.2V, Iout=0.53A
[2019-02-14 10:34:51] System starts up because USB 5V is connected.
[2019-02-14 10:34:56] Send out the SYS_UP signal via GPIO-17 pin.
[2019-02-14 10:34:56] Pending for incoming shutdown command...
[2019-02-14 10:34:57] File "schedule.wpi" not found, skip running schedule script.
                                                                                                                                [xxxx-xx-xx xx:xx:xx] Witty Pi daemon (v4.13) is started.
[xxxx-xx-xx xx:xx:xx] Running on Raspberry Pi 4 Model B Rev 1.5
[xxxx-xx-xx xx:xx:xx] RTC has bad time, write system time into RTC
[xxxx-xx-xx xx:xx:xx] Writing system time to RTC...
<2019-02-14 10:12:09> Done :-)
<2019-02-14 10:12:09> Firmware ID: 0x37
<2019-02-14 10:12:09> Firmware Revison: 0x05
<2019-02-14 10:12:09> Current Vout=5.15V, Iout=0.51A
<2019-02-14 10:12:09> System starts up because USB 5V is connected.
<2019-02-14 10:12:14> Send out the SYS_UP signal via GPIO-17 pin.
[2019-02-14 10:12:15] File "schedule.wpi" not found, skip running schedule script.
<2019-02-14 10:12:15> Pending for incoming shutdown command...
<2019-02-14 10:14:54> Shutting down system because button is clicked or GPIO-4 is pulled down.
Shutting down in 20 seconds...
[xxxx-xx-xx xx:xx:xx] Witty Pi daemon (v4.13) is started.
[xxxx-xx-xx xx:xx:xx] Running on Raspberry Pi 4 Model B Rev 1.5
[xxxx-xx-xx xx:xx:xx] Seems RTC has good time, write RTC time into system
[xxxx-xx-xx xx:xx:xx] Writing RTC time to system...
[2019-02-14 10:16:46] Done :-)
[2019-02-14 10:16:46] Firmware ID: 0x37
[2019-02-14 10:16:46] Firmware Revison: 0x05
[2019-02-14 10:16:46] Current Vout=5.18V, Iout=0.3A
[2019-02-14 10:16:46] System starts up because the button is clicked.
[2019-02-14 10:16:51] Send out the SYS_UP signal via GPIO-17 pin.
[2019-02-14 10:16:51] File "schedule.wpi" not found, skip running schedule script.
[2019-02-14 10:16:51] Pending for incoming shutdown command...
[2019-02-14 10:18:26] Seting shutdown time to "14 10:20:00"
[2019-02-14 10:18:26] Done :-)
                                                                                                             [xxxx-xx-xx xx:xx:xx] Witty Pi daemon (v4.13) is started.
[xxxx-xx-xx xx:xx:xx] Running on Raspberry Pi 4 Model B Rev 1.5
[xxxx-xx-xx xx:xx:xx] Seems RTC has good time, write RTC time into system
[xxxx-xx-xx xx:xx:xx] Writing RTC time to system...
[2019-02-14 10:21:08] Done :-)
[2019-02-14 10:21:08] Firmware ID: 0x37
[2019-02-14 10:21:08] Firmware Revison: 0x05
[2019-02-14 10:21:08] Current Vout=5.21V, Iout=0.45A
[2019-02-14 10:21:08] System starts up because the button is clicked.
[2019-02-14 10:21:13] Send out the SYS_UP signal via GPIO-17 pin.
[2019-02-14 10:21:13] Pending for incoming shutdown command...
[2019-02-14 10:21:13] File "schedule.wpi" not found, skip running schedule script.
[2019-02-14 10:22:18] Seting shutdown time to "14 10:23:00"
[2019-02-14 10:22:19] Done :-)
[2019-02-14 10:22:49] Power cut delay set to 10 seconds!
                                                                                                             [xxxx-xx-xx xx:xx:xx] Witty Pi daemon (v4.13) is started.
[xxxx-xx-xx xx:xx:xx] Running on Raspberry Pi 4 Model B Rev 1.5
[xxxx-xx-xx xx:xx:xx] RTC has bad time, write system time into RTC
[xxxx-xx-xx xx:xx:xx] Writing system time to RTC...
<2019-02-14 10:12:09> Done :-)
<2019-02-14 10:12:09> Firmware ID: 0x37
<2019-02-14 10:12:09> Firmware Revison: 0x05
<2019-02-14 10:12:09> Current Vout=5.19V, Iout=0.62A
<2019-02-14 10:12:09> System starts up because USB 5V is connected.
<2019-02-14 10:12:14> Send out the SYS_UP signal via GPIO-17 pin.
[2019-02-14 10:12:15] File "schedule.wpi" not found, skip running schedule script.
<2019-02-14 10:12:15> Pending for incoming shutdown command...
[2019-02-14 10:12:33] Low voltage threshold set to 4.2V!
[2019-02-14 10:12:49] Power cut delay set to 10 seconds!
                                                                                                                              [xxxx-xx-xx xx:xx:xx] Witty Pi daemon (v4.13) is started.
[xxxx-xx-xx xx:xx:xx] Running on Raspberry Pi 4 Model B Rev 1.5
[xxxx-xx-xx xx:xx:xx] Seems RTC has good time, write RTC time into system
[xxxx-xx-xx xx:xx:xx] Writing RTC time to system...
[2024-04-02 18:30:45] Done :-)
[2024-04-02 18:30:45] Firmware ID: 0x37
[2024-04-02 18:30:45] Firmware Revison: 0x05
[2024-04-02 18:30:45] Current Vout=5.2V, Iout=0.4A
[2024-04-02 18:30:45] System starts up because the button is clicked.
[2024-04-02 18:30:50] Send out the SYS_UP signal via GPIO-17 pin.
[2024-04-02 18:30:50] File "schedule.wpi" not found, skip running schedule script.
[2024-04-02 18:30:50] Pending for incoming shutdown command...
[2024-04-02 18:33:07] Copying "test_script.wpi" to "schedule.wpi"...
[2024-04-02 18:33:07] Running the script...
[2024-04-02 18:33:08] Schedule next shutdown at: 2024-04-02 19:00:00
[2024-04-02 18:33:08] Schedule next startup at: 2024-04-02 19:50:00
[2024-04-02 18:33:08] Done :-)
[xxxx-xx-xx xx:xx:xx] Witty Pi daemon (v4.13) is started.
[xxxx-xx-xx xx:xx:xx] Running on Raspberry Pi 4 Model B Rev 1.5
[xxxx-xx-xx xx:xx:xx] Seems RTC has good time, write RTC time into system
[xxxx-xx-xx xx:xx:xx] Writing RTC time to system...
[2024-04-02 17:38:32] Done :-)
[2024-04-02 17:38:32] System was previously shut down because of low-voltage.
[2024-04-02 17:38:32] Firmware ID: 0x37
[2024-04-02 17:38:32] Firmware Revison: 0x05
[2024-04-02 17:38:32] Current Vin=3.93V, Vout=5.23V, Iout=1.13A
[2024-04-02 17:38:32] System starts up because the button is clicked.
[2024-04-02 17:38:37] Send out the SYS_UP signal via GPIO-17 pin.
[2024-04-02 17:38:38] Pending for incoming shutdown command...
[2024-04-02 17:38:38] Schedule next shutdown at: 2024-04-02 19:00:00
[2024-04-02 17:38:38] Schedule next startup at: 2024-04-02 19:50:00
[xxxx-xx-xx xx:xx:xx] Witty Pi daemon (v4.13) is started.
[xxxx-xx-xx xx:xx:xx] Running on Raspberry Pi 4 Model B Rev 1.5
[xxxx-xx-xx xx:xx:xx] Seems RTC has good time, write RTC time into system
[xxxx-xx-xx xx:xx:xx] Writing RTC time to system...
[2024-04-02 17:39:34] Done :-)
[2024-04-02 17:39:34] System was previously shut down because of low-voltage.
[2024-04-02 17:39:34] Firmware ID: 0x37
[2024-04-02 17:39:34] Firmware Revison: 0x05
[2024-04-02 17:39:34] Current Vin=3.87V, Vout=5.17V, Iout=0.62A
[2024-04-02 17:39:34] System starts up because the button is clicked.
[2024-04-02 17:39:39] Send out the SYS_UP signal via GPIO-17 pin.
[2024-04-02 17:39:39] Pending for incoming shutdown command...
[2024-04-02 17:39:40] Schedule next shutdown at: 2024-04-02 19:00:00
[2024-04-02 17:39:40] Schedule next startup at: 2024-04-02 19:50:00
[2024-04-02 17:40:00] Clearing auto startup time...
[2024-04-02 17:40:00] done :-)
[2024-04-02 17:40:00] Clearing auto shutdown time...
[2024-04-02 17:40:00] done :-)
[2024-04-02 17:40:00] Deleting "schedule.wpi" file...
[2024-04-02 17:40:00] done :-)
[2024-04-02 17:40:00] Clearing low voltage threshold...
[2024-04-02 17:40:00] done :-)
[2024-04-02 17:40:00] Clearing recovery voltage threshold...
[2024-04-02 17:40:00] done :-)
[2024-04-02 17:40:00] Clearing over temperature action...
[2024-04-02 17:40:00] done :-)
[2024-04-02 17:40:00] Clearing below temperature action...
[2024-04-02 17:40:00] done :-)
[xxxx-xx-xx xx:xx:xx] Witty Pi daemon (v4.13) is started.
[xxxx-xx-xx xx:xx:xx] Running on Raspberry Pi 4 Model B Rev 1.5
[xxxx-xx-xx xx:xx:xx] Seems RTC has good time, write RTC time into system
[xxxx-xx-xx xx:xx:xx] Writing RTC time to system...
[2024-04-02 17:40:36] Done :-)
[2024-04-02 17:40:36] System was previously shut down because of low-voltage.
[2024-04-02 17:40:36] Firmware ID: 0x37
[2024-04-02 17:40:36] Firmware Revison: 0x05
[2024-04-02 17:40:36] Current Vin=3.87V, Vout=5.23V, Iout=0.96A
[2024-04-02 17:40:36] System starts up because the button is clicked.
[2024-04-02 17:40:41] Send out the SYS_UP signal via GPIO-17 pin.
[2024-04-02 17:40:41] File "schedule.wpi" not found, skip running schedule script.
[2024-04-02 17:40:41] Pending for incoming shutdown command...
[2024-04-02 17:40:59] Clearing auto startup time...
[2024-04-02 17:40:59] done :-)
[2024-04-02 17:40:59] Clearing auto shutdown time...
[2024-04-02 17:40:59] done :-)
[2024-04-02 17:40:59] Deleting "schedule.wpi" file...
[2024-04-02 17:40:59] file does not exist
[2024-04-02 17:40:59] Clearing low voltage threshold...
[2024-04-02 17:40:59] done :-)
[2024-04-02 17:40:59] Clearing recovery voltage threshold...
[2024-04-02 17:41:00] done :-)
[2024-04-02 17:41:00] Clearing over temperature action...
[2024-04-02 17:41:00] done :-)
[2024-04-02 17:41:00] Clearing below temperature action...
[2024-04-02 17:41:00] done :-)
[2024-04-02 17:41:16] Set to "Default OFF"!
[2024-04-02 17:41:27] Copying "test_script.wpi" to "schedule.wpi"...
[2024-04-02 17:41:27] Running the script...
[2024-04-02 17:41:28] Schedule next shutdown at: 2024-04-02 19:00:00
[2024-04-02 17:41:28] Schedule next startup at: 2024-04-02 19:50:00
[2024-04-02 17:41:28] Done :-)
{
    "os_time": {
        "os_time": 1712076043.0149488,
        "timezone": "BST"
    },
    "camera": {
        "connected": true,
        "id": "0B9CD574",
        "config": {
            "brightness": "300",
            "focus_auto": "2",
            "focus_absolute": "200",
            "exposure_auto": "3",
            "exposure_absolute": "320",
            "zoom_absolute": "400",
            "white_balance_temperature_auto": "3",
            "white_balance_temperature": "7000",
            "sharpness": "35",
            "contrast": "20"
        }
    },
    "memory": {
        "ssd_connected": true,
        "picture_count": 14,
        "last_picture_timestamp": 1712074552.22,
        "last_picture_size": 147844,
        "picture_count_last_24h": 14,
        "picture_count_last_24h_below_200kb": 14,
        "free_memory": 500032471040
    },
    "bluetooth": {
        "powered": true,
        "enabled": true
    },
    "temperature": 27.375
}

{'total': 1, 'crc': '0001:15CB2833'}

{'crc': '0002:A3A6BF43'}

{'status': 'waiting for wireless service 20 sec [----] {cell-registration-wait}', 'mode': '{cell-registration-wait}', 'sync': True, 'requested': 1, 'crc': '0003:80E3EF81'}

{'status': 'waiting for wireless service 21 sec [----] {cell-registration-wait}', 'mode': '{cell-registration-wait}', 'sync': True, 'requested': 1, 'crc': '0004:7586EE43'}

{'status': 'waiting for wireless service 21 sec [----] {cell-registration-wait}', 'mode': '{cell-registration-wait}', 'sync': True, 'requested': 2, 'crc': '0005:5EABBD80'}

{'status': 'waiting for wireless service 24 sec [----] {cell-registration-wait}', 'mode': '{cell-registration-wait}', 'sync': True, 'requested': 3, 'crc': '0006:D1A38689'}

{'status': 'waiting for wireless service 24 sec [----] {cell-registration-wait}', 'mode': '{cell-registration-wait}', 'sync': True, 'requested': 4, 'crc': '0007:9EE2104E'}

{'status': 'waiting for wireless service 26 sec [----] {cell-registration-wait}', 'mode': '{cell-registration-wait}', 'sync': True, 'requested': 5, 'crc': '0008:B64224CA'}

{'status': 'waiting for wireless service 26 sec [----] {cell-registration-wait}', 'mode': '{cell-registration-wait}', 'sync': True, 'requested': 6, 'crc': '0009:9D6F7709'}

{'status': 'waiting for wireless service 28 sec [----] {cell-registration-wait}', 'mode': '{cell-registration-wait}', 'sync': True, 'requested': 7, 'crc': '000A:10555F13'}

{'status': 'waiting for wireless service 28 sec [----] {cell-registration-wait}', 'mode': '{cell-registration-wait}', 'sync': True, 'requested': 8, 'crc': '000B:97CD43DC'}

{'status': 'waiting for wireless service 31 sec [----] {cell-registration-wait}', 'mode': '{cell-registration-wait}', 'sync': True, 'requested': 10, 'crc': '000C:D80A35BF'}

{'status': 'waiting for wireless service 31 sec [----] {cell-registration-wait}', 'mode': '{cell-registration-wait}', 'sync': True, 'requested': 11, 'crc': '000D:C11104FE'}

{'status': 'waiting for wireless service 31 sec [----] {cell-registration-wait}', 'mode': '{cell-registration-wait}', 'sync': True, 'requested': 12, 'crc': '000E:EA3C573D'}

{'status': 'waiting for wireless service 33 sec [----] {cell-registration-wait}', 'mode': '{cell-registration-wait}', 'sync': True, 'requested': 13, 'crc': '000F:1818EB46'}

{'status': 'waiting for wireless service 33 sec [----] {cell-registration-wait}', 'mode': '{cell-registration-wait}', 'sync': True, 'requested': 14, 'crc': '0010:57597D81'}

{'status': 'waiting for wireless service 35 sec [----] {cell-registration-wait}', 'mode': '{cell-registration-wait}', 'sync': True, 'requested': 15, 'crc': '0011:A873DDCF'}

{'status': 'waiting for wireless service 35 sec [----] {cell-registration-wait}', 'mode': '{cell-registration-wait}', 'sync': True, 'requested': 16, 'crc': '0012:835E8E0C'}

{'status': 'waiting for wireless service 38 sec [----] {cell-registration-wait}', 'mode': '{cell-registration-wait}', 'sync': True, 'requested': 17, 'crc': '0013:F8C85D8F'}

{'status': 'waiting for wireless service 38 sec [----] {cell-registration-wait}', 'mode': '{cell-registration-wait}', 'sync': True, 'requested': 18, 'crc': '0014:7F504140'}

{'status': 'waiting for wireless service 40 sec [----] {cell-registration-wait}', 'mode': '{cell-registration-wait}', 'sync': True, 'requested': 20, 'crc': '0015:B1411144'}

{'status': 'waiting for wireless service 40 sec [----] {cell-registration-wait}', 'mode': '{cell-registration-wait}', 'sync': True, 'requested': 21, 'crc': '0016:A85A2005'}

{'status': 'waiting for wireless service 42 sec [----] {cell-registration-wait}', 'mode': '{cell-registration-wait}', 'sync': True, 'requested': 22, 'crc': '0017:6848FEFC'}

{'status': 'waiting for wireless service 42 sec [----] {cell-registration-wait}', 'mode': '{cell-registration-wait}', 'sync': True, 'requested': 23, 'crc': '0018:7153CFBD'}

{'status': 'waiting for wireless service 45 sec [----] {cell-registration-wait}', 'mode': '{cell-registration-wait}', 'sync': True, 'requested': 24, 'crc': '0019:ADBC0EE8'}

{'status': 'waiting for wireless service 45 sec [----] {cell-registration-wait}', 'mode': '{cell-registration-wait}', 'sync': True, 'requested': 25, 'crc': '001A:B4A73FA9'}

{'status': 'waiting for wireless service 47 sec [----] {cell-registration-wait}', 'mode': '{cell-registration-wait}', 'sync': True, 'requested': 26, 'crc': '001B:74B5E150'}

{'status': 'waiting for wireless service 47 sec [----] {cell-registration-wait}', 'mode': '{cell-registration-wait}', 'sync': True, 'requested': 27, 'crc': '001C:6DAED011'}

{'status': 'waiting for wireless service 49 sec [----] {cell-registration-wait}', 'mode': '{cell-registration-wait}', 'sync': True, 'requested': 28, 'crc': '001D:161B65BB'}

{'status': 'waiting for wireless service 49 sec [----] {cell-registration-wait}', 'mode': '{cell-registration-wait}', 'sync': True, 'requested': 29, 'crc': '001E:0F0054FA'}

{'status': 'waiting for wireless service 49 sec [----] {cell-registration-wait}', 'mode': '{cell-registration-wait}', 'sync': True, 'requested': 31, 'crc': '001F:C61BB4C5'}

{'status': 'waiting for wireless service 52 sec [----] {cell-registration-wait}', 'mode': '{cell-registration-wait}', 'sync': True, 'requested': 32, 'crc': '0020:E741E4F4'}

{'status': 'waiting for wireless service 52 sec [----] {cell-registration-wait}', 'mode': '{cell-registration-wait}', 'sync': True, 'requested': 33, 'crc': '0021:FE5AD5B5'}

{'status': 'waiting for wireless service 54 sec [----] {cell-registration-wait}', 'mode': '{cell-registration-wait}', 'sync': True, 'requested': 34, 'crc': '0022:572AD27D'}

{'status': 'waiting for wireless service 54 sec [----] {cell-registration-wait}', 'mode': '{cell-registration-wait}', 'sync': True, 'requested': 35, 'crc': '0023:4E31E33C'}

{'status': 'waiting for wireless service 56 sec [----] {cell-registration-wait}', 'mode': '{cell-registration-wait}', 'sync': True, 'requested': 36, 'crc': '0024:8E233DC5'}

{'status': 'waiting for wireless service 56 sec [----] {cell-registration-wait}', 'mode': '{cell-registration-wait}', 'sync': True, 'requested': 37, 'crc': '0025:97380C84'}

{'status': 'waiting for wireless service 59 sec [----] {cell-registration-wait}', 'mode': '{cell-registration-wait}', 'sync': True, 'requested': 38, 'crc': '0026:99127FB3'}

{'status': 'waiting for wireless service 59 sec [----] {cell-registration-wait}', 'mode': '{cell-registration-wait}', 'sync': True, 'requested': 39, 'crc': '0027:80094EF2'}

{'status': 'waiting for wireless service 61 sec [----] {cell-registration-wait}', 'mode': '{cell-registration-wait}', 'sync': True, 'requested': 41, 'crc': '0028:1FAF7C15'}

{'status': 'waiting for wireless service 61 sec [----] {cell-registration-wait}', 'mode': '{cell-registration-wait}', 'sync': True, 'requested': 42, 'crc': '0029:34822FD6'}

{'status': 'waiting for wireless service 63 sec [----] {cell-registration-wait}', 'mode': '{cell-registration-wait}', 'sync': True, 'requested': 43, 'crc': '002A:C6A693AD'}

