[xxxx-xx-xx xx:xx:xx] Witty Pi daemon (v4.13) is started.
[xxxx-xx-xx xx:xx:xx] Running on Raspberry Pi 4 Model B Rev 1.5
[xxxx-xx-xx xx:xx:xx] RTC has bad time, write system time into RTC
[xxxx-xx-xx xx:xx:xx] Writing system time to RTC...
<2019-02-14 10:12:13> Done :-)
<2019-02-14 10:12:13> Firmware ID: 0x37
<2019-02-14 10:12:13> Firmware Revison: 0x04
<2019-02-14 10:12:13> Current Vout=5.26V, Iout=0.34A
<2019-02-14 10:12:13> System starts up because the button is clicked.
[xxxx-xx-xx xx:xx:xx] Witty Pi daemon (v4.13) is started.
[xxxx-xx-xx xx:xx:xx] Running on Raspberry Pi 4 Model B Rev 1.5
[xxxx-xx-xx xx:xx:xx] Seems RTC has good time, write RTC time into system
[xxxx-xx-xx xx:xx:xx] Writing RTC time to system...
[2019-02-14 10:12:41] Done :-)
[2019-02-14 10:12:41] Firmware ID: 0x37
[2019-02-14 10:12:41] Firmware Revison: 0x04
[2019-02-14 10:12:41] Current Vout=5.25V, Iout=0.36A
[2019-02-14 10:12:41] System starts up because the button is clicked.
[2019-02-14 10:12:49] Schedule next shutdown at: 2024-06-02 12:10:00
[2019-02-14 10:12:49] Schedule next startup at: 2024-06-03 21:06:18
Todays's sunset: 2019-02-14 17:16:43+00:00
Tomorrow's sunrise 2019-02-15 07:19:46+00:00
--------------- 2019-02-14 10:13:20 ---------------
Schedule next shutdown at: 2019-02-15 12:10:00
[2019-02-14 10:13:17] Schedule next shutdown at: 2019-02-15 12:10:00
Schedule next startup at:  2019-02-15 17:08:34
[2019-02-14 10:13:17] Schedule next startup at: 2019-02-15 17:08:34
---------------------------------------------------
Witty Pi schedule generated and saved to /home/pi/wittypi/schedules/witty_pi_schedule_2019_2_10.wpi.
Cannot open device /dev/video0, exiting.
Cannot open device /dev/video0, exiting.
Cannot open device /dev/video0, exiting.
Cannot open device /dev/video0, exiting.
Cannot open device /dev/video0, exiting.
Cannot open device /dev/video0, exiting.
Cannot open device /dev/video0, exiting.
Cannot open device /dev/video0, exiting.
Cannot open device /dev/video0, exiting.
Cannot open device /dev/video0, exiting.
/home/pi/scripts/setCamera.sh: 11: /home/pi/scripts/setCamera.sh: : not found
/home/pi/scripts/setCamera.sh: 12: /home/pi/scripts/setCamera.sh: : not found
[2019-02-14 10:13:20] Send out the SYS_UP signal via GPIO-17 pin.
[2019-02-14 10:13:20] Pending for incoming shutdown command...
[2019-02-14 10:16:59] Shutting down system because button is clicked or GPIO-4 is pulled down.
Shutting down in 15 seconds...Thu 14 Feb 10:16:59 GMT 2019
Good Bye Thu 14 Feb 10:17:14 GMT 2019
[2019-02-14 10:17:14] Halting all processes and then shutdown Raspberry Pi...
[xxxx-xx-xx xx:xx:xx] Witty Pi daemon (v4.13) is started.
[xxxx-xx-xx xx:xx:xx] Running on Raspberry Pi 4 Model B Rev 1.5
[xxxx-xx-xx xx:xx:xx] RTC has bad time, write system time into RTC
[xxxx-xx-xx xx:xx:xx] Writing system time to RTC...
<2019-02-14 10:12:06> Done :-)
<2019-02-14 10:12:06> Firmware ID: 0x37
<2019-02-14 10:12:06> Firmware Revison: 0x04
<2019-02-14 10:12:06> Current Vout=5.18V, Iout=1.03A
<2019-02-14 10:12:06> System starts up because USB 5V is connected.
[2019-02-14 10:12:13] Schedule next shutdown at: 2019-02-15 12:10:00
[2019-02-14 10:12:13] Schedule next startup at: 2019-02-15 17:08:34
Todays's sunset: 2019-02-14 17:16:43+00:00
Tomorrow's sunrise 2019-02-15 07:19:46+00:00
--------------- 2019-02-14 10:12:14 ---------------
Schedule next shutdown at: 2019-02-15 12:10:00
[2019-02-14 10:12:14] Schedule next shutdown at: 2019-02-15 12:10:00
Schedule next startup at:  2019-02-15 17:08:34
[2019-02-14 10:12:15] Schedule next startup at: 2019-02-15 17:08:34
---------------------------------------------------
Witty Pi schedule generated and saved to /home/pi/wittypi/schedules/witty_pi_schedule_2019_2_10.wpi.
<2019-02-14 10:12:17> Send out the SYS_UP signal via GPIO-17 pin.
<2019-02-14 10:12:18> Pending for incoming shutdown command...
[2024-06-11 08:53:21] Writing system time to RTC...
<2024-06-11 08:53:21> Done :-)
[2024-06-11 08:53:27] Schedule next shutdown at: 2024-06-12 12:10:00
[2024-06-11 08:53:27] Schedule next startup at: 2024-06-12 21:13:46
<2024-06-11 09:05:16> Shutting down system because input voltge is too low: Vin=3.5V, Vlow=4V
Shutting down in 15 seconds...Tue 11 Jun 09:05:16 BST 2024
Good Bye Tue 11 Jun 09:05:31 BST 2024
<2024-06-11 09:05:31> Halting all processes and then shutdown Raspberry Pi...
[xxxx-xx-xx xx:xx:xx] Witty Pi daemon (v4.13) is started.
[xxxx-xx-xx xx:xx:xx] Running on Raspberry Pi 4 Model B Rev 1.5
[xxxx-xx-xx xx:xx:xx] Seems RTC has good time, write RTC time into system
[xxxx-xx-xx xx:xx:xx] Writing RTC time to system...
[2024-06-11 09:06:11] Done :-)
[2024-06-11 09:06:11] System was previously shut down because of low-voltage.
[2024-06-11 09:06:11] Firmware ID: 0x37
[2024-06-11 09:06:11] Firmware Revison: 0x04
[2024-06-11 09:06:11] Current Vout=5.18V, Iout=0.86A
[2024-06-11 09:06:11] System starts up because the button is clicked.
[2024-06-11 09:06:17] Schedule next shutdown at: 2024-06-12 12:10:00
[2024-06-11 09:06:17] Schedule next startup at: 2024-06-12 21:13:46
Todays's sunset: 2024-06-11 21:23:06+01:00
Tomorrow's sunrise 2024-06-12 04:46:14+01:00
--------------- 2024-06-11 09:06:20 ---------------
Schedule next shutdown at: 2024-06-12 12:10:00
[2024-06-11 09:06:19] Schedule next shutdown at: 2024-06-12 12:10:00
Schedule next startup at:  2024-06-12 21:13:46
[2024-06-11 09:06:19] Schedule next startup at: 2024-06-12 21:13:46
---------------------------------------------------
Witty Pi schedule generated and saved to /home/pi/wittypi/schedules/witty_pi_schedule_2024_6_9.wpi.
[2024-06-11 09:06:22] Send out the SYS_UP signal via GPIO-17 pin.
[2024-06-11 09:06:22] Pending for incoming shutdown command...
[2024-06-11 09:08:15] Shutting down system because input voltge is too low: Vin=3.5V, Vlow=4V
Shutting down in 15 seconds...Tue 11 Jun 09:08:15 BST 2024
Good Bye Tue 11 Jun 09:08:30 BST 2024
[2024-06-11 09:08:30] Halting all processes and then shutdown Raspberry Pi...
[xxxx-xx-xx xx:xx:xx] Witty Pi daemon (v4.13) is started.
[xxxx-xx-xx xx:xx:xx] Running on Raspberry Pi 4 Model B Rev 1.5
[xxxx-xx-xx xx:xx:xx] Seems RTC has good time, write RTC time into system
[xxxx-xx-xx xx:xx:xx] Writing RTC time to system...
[2024-06-11 09:09:09] Done :-)
[2024-06-11 09:09:09] System was previously shut down because of low-voltage.
[2024-06-11 09:09:09] Firmware ID: 0x37
[2024-06-11 09:09:09] Firmware Revison: 0x04
[2024-06-11 09:09:09] Current Vin=3.32V, Vout=5.18V, Iout=0.68A
[2024-06-11 09:09:09] System starts up because the button is clicked.
[2024-06-11 09:09:15] Schedule next shutdown at: 2024-06-12 12:10:00
[2024-06-11 09:09:15] Schedule next startup at: 2024-06-12 21:13:46
Todays's sunset: 2024-06-11 21:23:06+01:00
Tomorrow's sunrise 2024-06-12 04:46:14+01:00
--------------- 2024-06-11 09:09:17 ---------------
Schedule next shutdown at: 2024-06-12 12:10:00
[2024-06-11 09:09:17] Schedule next shutdown at: 2024-06-12 12:10:00
Schedule next startup at:  2024-06-12 21:13:46
[2024-06-11 09:09:17] Schedule next startup at: 2024-06-12 21:13:46
---------------------------------------------------
Witty Pi schedule generated and saved to /home/pi/wittypi/schedules/witty_pi_schedule_2024_6_9.wpi.
[2024-06-11 09:09:20] Send out the SYS_UP signal via GPIO-17 pin.
[2024-06-11 09:09:20] Pending for incoming shutdown command...
[xxxx-xx-xx xx:xx:xx] Witty Pi daemon (v4.13) is started.
[xxxx-xx-xx xx:xx:xx] Running on Raspberry Pi 4 Model B Rev 1.5
[xxxx-xx-xx xx:xx:xx] Seems RTC has good time, write RTC time into system
[xxxx-xx-xx xx:xx:xx] Writing RTC time to system...
[2024-06-11 09:10:13] Done :-)
[2024-06-11 09:10:13] System was previously shut down because of low-voltage.
[2024-06-11 09:10:13] Firmware ID: 0x37
[2024-06-11 09:10:13] Firmware Revison: 0x04
[2024-06-11 09:10:13] Current Vin=3.38V, Vout=5.19V, Iout=0.88A
[2024-06-11 09:10:13] System starts up because the button is clicked.
[2024-06-11 09:10:19] Schedule next shutdown at: 2024-06-12 12:10:00
[2024-06-11 09:10:19] Schedule next startup at: 2024-06-12 21:13:46
Todays's sunset: 2024-06-11 21:23:06+01:00
Tomorrow's sunrise 2024-06-12 04:46:14+01:00
--------------- 2024-06-11 09:10:21 ---------------
Schedule next shutdown at: 2024-06-12 12:10:00
[2024-06-11 09:10:21] Schedule next shutdown at: 2024-06-12 12:10:00
Schedule next startup at:  2024-06-12 21:13:46
[2024-06-11 09:10:21] Schedule next startup at: 2024-06-12 21:13:46
---------------------------------------------------
Witty Pi schedule generated and saved to /home/pi/wittypi/schedules/witty_pi_schedule_2024_6_9.wpi.
[2024-06-11 09:10:24] Send out the SYS_UP signal via GPIO-17 pin.
[2024-06-11 09:10:24] Pending for incoming shutdown command...
[2024-06-11 09:10:25] Shutting down system because input voltge is too low: Vin=3.44V, Vlow=4V
Shutting down in 15 seconds...Tue 11 Jun 09:10:25 BST 2024
Good Bye Tue 11 Jun 09:10:40 BST 2024
[2024-06-11 09:10:40] Halting all processes and then shutdown Raspberry Pi...
[xxxx-xx-xx xx:xx:xx] Witty Pi daemon (v4.13) is started.
[xxxx-xx-xx xx:xx:xx] Running on Raspberry Pi 4 Model B Rev 1.5
[xxxx-xx-xx xx:xx:xx] Seems RTC has good time, write RTC time into system
[xxxx-xx-xx xx:xx:xx] Writing RTC time to system...
[2024-06-11 15:40:18] Done :-)
[2024-06-11 15:40:18] Firmware ID: 0x37
[2024-06-11 15:40:18] Firmware Revison: 0x04
[2024-06-11 15:40:18] Current Vout=5.18V, Iout=0.7A
[2024-06-11 15:40:18] System starts up because USB 5V is connected.
[2024-06-11 15:40:24] Schedule next shutdown at: 2024-06-12 12:10:00
[2024-06-11 15:40:24] Schedule next startup at: 2024-06-12 21:13:46
Todays's sunset: 2024-06-11 21:23:06+01:00
Tomorrow's sunrise 2024-06-12 04:46:14+01:00
--------------- 2024-06-11 15:40:27 ---------------
Schedule next shutdown at: 2024-06-12 12:10:00
[2024-06-11 15:40:26] Schedule next shutdown at: 2024-06-12 12:10:00
Schedule next startup at:  2024-06-12 21:13:46
[2024-06-11 15:40:26] Schedule next startup at: 2024-06-12 21:13:46
---------------------------------------------------
Witty Pi schedule generated and saved to /home/pi/wittypi/schedules/witty_pi_schedule_2024_6_9.wpi.
[2024-06-11 15:40:29] Send out the SYS_UP signal via GPIO-17 pin.
[2024-06-11 15:40:29] Pending for incoming shutdown command...
[2024-06-11 16:01:33] Shutting down system because input voltge is too low: Vin=3.26V, Vlow=4V
Shutting down in 15 seconds...Tue 11 Jun 16:01:33 BST 2024
Good Bye Tue 11 Jun 16:01:48 BST 2024
[2024-06-11 16:01:48] Halting all processes and then shutdown Raspberry Pi...
[xxxx-xx-xx xx:xx:xx] Witty Pi daemon (v4.13) is started.
[xxxx-xx-xx xx:xx:xx] Running on Raspberry Pi 4 Model B Rev 1.5
[xxxx-xx-xx xx:xx:xx] Seems RTC has good time, write RTC time into system
[xxxx-xx-xx xx:xx:xx] Writing RTC time to system...
[2024-06-12 03:01:51] Done :-)
[2024-06-12 03:01:51] System was previously shut down because of low-voltage.
[2024-06-12 03:01:51] Firmware ID: 0x37
[2024-06-12 03:01:51] Firmware Revison: 0x04
[2024-06-12 03:01:51] Current Vout=5.23V, Iout=0.73A
[2024-06-12 03:01:51] System starts up because scheduled startup is due.
Todays's sunset: 2024-06-12 21:23:46+01:00
Tomorrow's sunrise 2024-06-13 04:46:03+01:00
[2024-06-12 03:01:58] I2C read 0x01 0x08 27 failed (result=), retrying 1 ...
[2024-06-12 03:01:58] Schedule next shutdown at: 2024-06-12 12:10:00
[2024-06-12 03:01:58] Schedule next startup at: 2024-06-12 21:13:46
--------------- 2024-06-12 03:02:00 ---------------
Schedule next shutdown at: 2024-06-12 12:10:00
[2024-06-12 03:01:59] Schedule next shutdown at: 2024-06-12 12:10:00
Schedule next startup at:  2024-06-12 21:13:46
[2024-06-12 03:01:59] Schedule next startup at: 2024-06-12 21:13:46
---------------------------------------------------
Witty Pi schedule generated and saved to /home/pi/wittypi/schedules/witty_pi_schedule_2024_6_9.wpi.
[2024-06-12 03:02:02] Send out the SYS_UP signal via GPIO-17 pin.
[2024-06-12 03:02:02] Pending for incoming shutdown command...
[2024-06-12 03:02:27] Shutting down system because input voltge is too low: Vin=3.26V, Vlow=4V
Shutting down in 15 seconds...Wed 12 Jun 03:02:27 BST 2024
Good Bye Wed 12 Jun 03:02:42 BST 2024
[2024-06-12 03:02:42] Halting all processes and then shutdown Raspberry Pi...
[xxxx-xx-xx xx:xx:xx] Witty Pi daemon (v4.13) is started.
[xxxx-xx-xx xx:xx:xx] Running on Raspberry Pi 4 Model B Rev 1.5
[xxxx-xx-xx xx:xx:xx] Seems RTC has good time, write RTC time into system
[xxxx-xx-xx xx:xx:xx] Writing RTC time to system...
[2024-06-12 21:14:07] Done :-)
[2024-06-12 21:14:07] System was previously shut down because of low-voltage.
[2024-06-12 21:14:07] Firmware ID: 0x37
[2024-06-12 21:14:07] Firmware Revison: 0x04
[2024-06-12 21:14:07] Current Vout=5.18V, Iout=0.96A
[2024-06-12 21:14:07] System starts up because scheduled startup is due.
Todays's sunset: 2024-06-12 21:23:46+01:00
Tomorrow's sunrise 2024-06-13 04:46:03+01:00
[2024-06-12 21:14:14] I2C read 0x01 0x08 33 failed (result=), retrying 1 ...
--------------- 2024-06-12 21:14:13 ---------------
Schedule next shutdown at: 2024-06-13 04:56:03
[2024-06-12 21:14:15] Schedule next shutdown at: 2024-06-13 04:56:03
[2024-06-12 21:14:15] I2C read 0x01 0x08 35 failed (result=), retrying 1 ...
Schedule next startup at:  2024-06-13 11:50:00
[2024-06-12 21:14:15] Schedule next startup at: 2024-06-13 11:50:00
[2024-06-12 21:14:15] Schedule next shutdown at: 2024-06-13 04:56:03
---------------------------------------------------
Witty Pi schedule generated and saved to /home/pi/wittypi/schedules/witty_pi_schedule_2024_6_9.wpi.
[2024-06-12 21:14:15] Schedule next startup at: 2024-06-13 11:50:00
[2024-06-12 21:14:18] Send out the SYS_UP signal via GPIO-17 pin.
[2024-06-12 21:14:18] Pending for incoming shutdown command...
[2024-06-12 21:14:24] Shutting down system because input voltge is too low: Vin=3.5V, Vlow=4V
Shutting down in 15 seconds...Wed 12 Jun 21:14:24 BST 2024
Good Bye Wed 12 Jun 21:14:39 BST 2024
[xxxx-xx-xx xx:xx:xx] Witty Pi daemon (v4.13) is started.
[xxxx-xx-xx xx:xx:xx] Running on Raspberry Pi 4 Model B Rev 1.5
[xxxx-xx-xx xx:xx:xx] Seems RTC has good time, write RTC time into system
[xxxx-xx-xx xx:xx:xx] Writing RTC time to system...
[2024-06-13 11:50:21] Done :-)
[2024-06-13 11:50:21] System was previously shut down because of low-voltage.
[2024-06-13 11:50:21] Firmware ID: 0x37
[2024-06-13 11:50:21] Firmware Revison: 0x04
[2024-06-13 11:50:21] Current Vout=5.25V, Iout=0.77A
[2024-06-13 11:50:21] System starts up because scheduled startup is due.
Todays's sunset: 2024-06-13 21:24:22+01:00
Tomorrow's sunrise 2024-06-14 04:45:55+01:00
[2024-06-13 11:50:27] I2C read 0x01 0x08 61 failed (result=), retrying 1 ...
[2024-06-13 11:50:28] Schedule next shutdown at: 2024-06-14 12:10:00
[2024-06-13 11:50:28] Schedule next startup at: 2024-06-14 21:14:56
--------------- 2024-06-13 11:50:29 ---------------
Schedule next shutdown at: 2024-06-14 12:10:00
[2024-06-13 11:50:29] Schedule next shutdown at: 2024-06-14 12:10:00
Schedule next startup at:  2024-06-14 21:14:56
[2024-06-13 11:50:29] Schedule next startup at: 2024-06-14 21:14:56
---------------------------------------------------
Witty Pi schedule generated and saved to /home/pi/wittypi/schedules/witty_pi_schedule_2024_6_9.wpi.
[2024-06-13 11:50:32] Send out the SYS_UP signal via GPIO-17 pin.
[2024-06-13 11:50:32] Pending for incoming shutdown command...
[2024-06-14 00:05:02] Schedule next shutdown at: 2024-06-14 12:10:00
[2024-06-14 00:05:03] Schedule next startup at: 2024-06-14 21:14:56
[2024-06-14 12:09:59] Shutting down system because scheduled shutdown is due.
Shutting down in 15 seconds...Fri 14 Jun 12:09:59 BST 2024
Good Bye Fri 14 Jun 12:10:15 BST 2024
[2024-06-14 12:10:15] Halting all processes and then shutdown Raspberry Pi...
[xxxx-xx-xx xx:xx:xx] Witty Pi daemon (v4.13) is started.
[xxxx-xx-xx xx:xx:xx] Running on Raspberry Pi 4 Model B Rev 1.5
[xxxx-xx-xx xx:xx:xx] Seems RTC has good time, write RTC time into system
[xxxx-xx-xx xx:xx:xx] Writing RTC time to system...
[2024-06-14 12:10:48] Done :-)
[2024-06-14 12:10:48] Firmware ID: 0x37
[2024-06-14 12:10:48] Firmware Revison: 0x04
[2024-06-14 12:10:48] Current Vout=5.17V, Iout=0.88A
[2024-06-14 12:10:48] System starts up because of the scheduled startup got delayed.
[2024-06-14 12:10:48] Maybe the scheduled startup was due when Pi was running, or Pi had been shut down but TXD stayed HIGH to prevent the power cut.
[2024-06-14 12:10:54] Schedule script is interrupted, revising the schedule...
[2024-06-14 12:10:54] Schedule next shutdown at: 2024-06-14 21:13:56
[2024-06-14 12:10:54] Schedule next startup at: 2024-06-14 21:14:56
Todays's sunset: 2024-06-14 21:24:56+01:00
Tomorrow's sunrise 2024-06-15 04:45:49+01:00
--------------- 2024-06-14 12:10:56 ---------------
Schedule next shutdown at: 2024-06-15 04:55:49
[2024-06-14 12:10:56] Schedule next shutdown at: 2024-06-15 04:55:49
Schedule next startup at:  2024-06-15 11:50:00
[2024-06-14 12:10:56] Schedule next startup at: 2024-06-15 11:50:00
---------------------------------------------------
Witty Pi schedule generated and saved to /home/pi/wittypi/schedules/witty_pi_schedule_2024_6_9.wpi.
[2024-06-14 12:10:59] Send out the SYS_UP signal via GPIO-17 pin.
[2024-06-14 12:10:59] Pending for incoming shutdown command...
[2024-06-15 00:05:02] Schedule next shutdown at: 2024-06-15 04:55:49
[2024-06-15 00:05:02] Schedule next startup at: 2024-06-15 11:50:00
[2024-06-15 04:55:49] Shutting down system because scheduled shutdown is due.
Shutting down in 15 seconds...Sat 15 Jun 04:55:49 BST 2024
Good Bye Sat 15 Jun 04:56:04 BST 2024
[2024-06-15 04:56:04] Halting all processes and then shutdown Raspberry Pi...
[xxxx-xx-xx xx:xx:xx] Witty Pi daemon (v4.13) is started.
[xxxx-xx-xx xx:xx:xx] Running on Raspberry Pi 4 Model B Rev 1.5
[xxxx-xx-xx xx:xx:xx] Seems RTC has good time, write RTC time into system
[xxxx-xx-xx xx:xx:xx] Writing RTC time to system...
[2024-06-15 11:50:21] Done :-)
[2024-06-15 11:50:21] Firmware ID: 0x37
[2024-06-15 11:50:21] Firmware Revison: 0x04
[2024-06-15 11:50:21] Current Vout=5.23V, Iout=0.98A
[2024-06-15 11:50:21] System starts up because scheduled startup is due.
[2024-06-15 11:50:27] Schedule next shutdown at: 2024-06-16 12:10:00
[2024-06-15 11:50:27] Schedule next startup at: 2024-06-16 12:20:00
Todays's sunset: 2024-06-15 21:25:27+01:00
Tomorrow's sunrise 2024-06-16 04:45:47+01:00
--------------- 2024-06-15 11:50:29 ---------------
Schedule next shutdown at: 2024-06-16 12:10:00
[2024-06-15 11:50:29] Schedule next shutdown at: 2024-06-16 12:10:00
Schedule next startup at:  2024-06-16 12:20:00
[2024-06-15 11:50:29] Schedule next startup at: 2024-06-16 12:20:00
---------------------------------------------------
Witty Pi schedule generated and saved to /home/pi/wittypi/schedules/witty_pi_schedule_2024_6_9.wpi.
[2024-06-15 11:50:32] Send out the SYS_UP signal via GPIO-17 pin.
[2024-06-15 11:50:32] Pending for incoming shutdown command...
[2024-06-15 23:31:43] I2C read 0x01 0x08 11 failed (result=), retrying 1 ...
[2024-06-15 23:31:45] I2C read 0x01 0x08 11 failed (result=), retrying 2 ...
[2024-06-15 23:31:46] I2C read 0x01 0x08 11 failed (result=), retrying 3 ...
[2024-06-15 23:31:46] I2C read 0x01 0x08 11 failed (result=), and no more retry.
[2024-06-15 23:31:46] Unknown/incorrect shutdown reason: I2C read 0x01 0x08 11 failed (result=), and no more retry.
Shutting down in 15 seconds...Sat 15 Jun 23:31:46 BST 2024
Good Bye Sat 15 Jun 23:32:01 BST 2024
[2024-06-15 23:32:01] Halting all processes and then shutdown Raspberry Pi...
[xxxx-xx-xx xx:xx:xx] Witty Pi daemon (v4.13) is started.
[xxxx-xx-xx xx:xx:xx] Running on Raspberry Pi 4 Model B Rev 1.5
[xxxx-xx-xx xx:xx:xx] Seems RTC has good time, write RTC time into system
[xxxx-xx-xx xx:xx:xx] Writing RTC time to system...
[2024-06-16 12:20:21] Done :-)
[2024-06-16 12:20:21] System was previously shut down because of low-voltage.
[2024-06-16 12:20:21] Firmware ID: 0x37
[2024-06-16 12:20:21] Firmware Revison: 0x04
[2024-06-16 12:20:21] Current Vout=5.18V, Iout=0.81A
[2024-06-16 12:20:21] System starts up because scheduled startup is due.
[2024-06-16 12:20:27] The schedule script has ended already.
Todays's sunset: 2024-06-16 21:25:55+01:00
Tomorrow's sunrise 2024-06-17 04:45:48+01:00
--------------- 2024-06-16 12:20:29 ---------------
Schedule next shutdown at: 2024-06-18 04:55:52
[2024-06-16 12:20:29] Schedule next shutdown at: 2024-06-18 04:55:52
Schedule next startup at:  2024-06-18 11:50:00
[2024-06-16 12:20:29] Schedule next startup at: 2024-06-18 11:50:00
---------------------------------------------------
Witty Pi schedule generated and saved to /home/pi/wittypi/schedules/witty_pi_schedule_2024_6_16.wpi.
[2024-06-16 12:20:32] Send out the SYS_UP signal via GPIO-17 pin.
[2024-06-16 12:20:32] Pending for incoming shutdown command...
[2024-06-17 00:05:02] Schedule next shutdown at: 2024-06-18 04:55:52
[2024-06-17 00:05:02] Schedule next startup at: 2024-06-18 11:50:00
[2024-06-17 04:41:19] Shutting down system because input voltge is too low: Vin=3.38V, Vlow=4V
Shutting down in 15 seconds...Mon 17 Jun 04:41:19 BST 2024
Good Bye Mon 17 Jun 04:41:34 BST 2024
[2024-06-17 04:41:34] Halting all processes and then shutdown Raspberry Pi...
[xxxx-xx-xx xx:xx:xx] Witty Pi daemon (v4.13) is started.
[xxxx-xx-xx xx:xx:xx] Running on Raspberry Pi 4 Model B Rev 1.5
[xxxx-xx-xx xx:xx:xx] Seems RTC has good time, write RTC time into system
[xxxx-xx-xx xx:xx:xx] Writing RTC time to system...
[xxxx-xx-xx xx:xx:xx] I2C read 0x01 0x08 63 failed (result=), retrying 1 ...
[2019-02-14 10:12:08] Done :-)
[2019-02-14 10:12:08] System was previously shut down because of low-voltage.
[2019-02-14 10:12:08] Firmware ID: 0x37
[2019-02-14 10:12:08] Firmware Revison: 0x04
[2019-02-14 10:12:09] I2C read 0x01 0x08 1 failed (result=), retrying 1 ...
[2019-02-14 10:12:09] Current Vin=4.91V, Vout=5.25V, Iout=0.7A
[2019-02-14 10:12:09] System starts up because scheduled startup is due.
[2019-02-14 10:12:15] [Warning] System and RTC time seems not synchronized, difference is 168568694s. System time is "2019-02-14 10:12:15 GMT", while RTC time is "2024-06-18 11:50:29 BST". Please synchronize the time first.
[2019-02-14 10:12:15] Schedule next shutdown at: 2024-06-19 12:10:00
[2019-02-14 10:12:15] [Warning] System and RTC time seems not synchronized, difference is 168568694s. System time is "2019-02-14 10:12:15 GMT", while RTC time is "2024-06-18 11:50:29 BST". Please synchronize the time first.
[2019-02-14 10:12:15] Schedule next startup at: 2024-06-19 21:17:01
Todays's sunset: 2019-02-14 17:16:43+00:00
Tomorrow's sunrise 2019-02-15 07:19:46+00:00
--------------- 2024-06-18 11:50:30 ---------------
The schedule script has ended already.
[2019-02-14 10:12:17] The schedule script has ended already.
---------------------------------------------------
Witty Pi schedule generated and saved to /home/pi/wittypi/schedules/witty_pi_schedule_2019_2_10.wpi.
[2019-02-14 10:12:19] Send out the SYS_UP signal via GPIO-17 pin.
[2019-02-14 10:12:20] Pending for incoming shutdown command...
[2019-02-14 20:32:58] Shutting down system because input voltge is too low: Vin=3.14V, Vlow=4V
Shutting down in 15 seconds...Thu 14 Feb 20:32:58 GMT 2019
Good Bye Thu 14 Feb 20:33:13 GMT 2019
[2019-02-14 20:33:13] Halting all processes and then shutdown Raspberry Pi...
[xxxx-xx-xx xx:xx:xx] Witty Pi daemon (v4.13) is started.
[xxxx-xx-xx xx:xx:xx] Running on Raspberry Pi 4 Model B Rev 1.5
[xxxx-xx-xx xx:xx:xx] RTC has bad time, write system time into RTC
[xxxx-xx-xx xx:xx:xx] Writing system time to RTC...
<2019-02-14 10:12:06> Done :-)
<2019-02-14 10:12:06> System was previously shut down because of low-voltage.
<2019-02-14 10:12:06> Firmware ID: 0x37
<2019-02-14 10:12:06> Firmware Revison: 0x04
<2019-02-14 10:12:07> Current Vout=5.19V, Iout=0.86A
<2019-02-14 10:12:07> System starts up because scheduled startup is due.
[2019-02-14 10:12:13] Schedule next shutdown at: 2019-02-15 12:10:00
Todays's sunset: 2019-02-14 17:16:43+00:00
Tomorrow's sunrise 2019-02-15 07:19:46+00:00
[2019-02-14 10:12:14] I2C write 0x01 0x08 34 18 failed (result=0x25), retrying 1 ...
[2019-02-14 10:12:14] Schedule next startup at: 2019-02-15 17:08:34
--------------- 2019-02-14 10:12:13 ---------------
date: invalid date ‘19-85-14 10:12:14’
date: invalid date ‘@’
[Warning] System and RTC time seems not synchronized, difference is 1550139135s.
System time is "2019-02-14 10:12:15 GMT", while RTC time is "".
Please synchronize the time first.
[2019-02-14 10:12:15] [Warning] System and RTC time seems not synchronized, difference is 1550139135s. System time is "2019-02-14 10:12:15 GMT", while RTC time is "". Please synchronize the time first.
Schedule next shutdown at: 2019-02-15 12:10:00
[2019-02-14 10:12:15] Schedule next shutdown at: 2019-02-15 12:10:00
[2019-02-14 10:12:15] I2C write 0x01 0x08 30 21 failed (result=0x19), retrying 1 ...
[2019-02-14 10:12:16] I2C write 0x01 0x08 32 0 failed (result=0x20), retrying 1 ...
Schedule next startup at:  2019-02-15 17:08:34
[2019-02-14 10:12:16] Schedule next startup at: 2019-02-15 17:08:34
---------------------------------------------------
Witty Pi schedule generated and saved to /home/pi/wittypi/schedules/witty_pi_schedule_2019_2_10.wpi.
<2019-02-14 10:12:19> Send out the SYS_UP signal via GPIO-17 pin.
<2019-02-14 10:12:19> Pending for incoming shutdown command...
<2019-02-14 10:12:38> I2C read 0x01 0x08 11 failed (result=), retrying 1 ...
<2019-02-14 10:12:39> I2C read 0x01 0x08 11 failed (result=), retrying 2 ...
<2019-02-14 10:12:40> I2C read 0x01 0x08 11 failed (result=), retrying 3 ...
<2019-02-14 10:12:40> I2C read 0x01 0x08 11 failed (result=), and no more retry.
<2019-02-14 10:12:40> Unknown/incorrect shutdown reason: I2C read 0x01 0x08 11 failed (result=), and no more retry.
Shutting down in 15 seconds...Thu 14 Feb 10:12:40 GMT 2019
Good Bye Thu 14 Feb 10:12:56 GMT 2019
<2019-02-14 10:12:56> Halting all processes and then shutdown Raspberry Pi...
[xxxx-xx-xx xx:xx:xx] Witty Pi daemon (v4.13) is started.
[xxxx-xx-xx xx:xx:xx] Running on Raspberry Pi 4 Model B Rev 1.5
[xxxx-xx-xx xx:xx:xx] Seems RTC has good time, write RTC time into system
[xxxx-xx-xx xx:xx:xx] Writing RTC time to system...
[2019-02-14 10:12:07] Done :-)
[2019-02-14 10:12:07] System was previously shut down because of low-voltage.
[2019-02-14 10:12:07] Firmware ID: 0x37
[2019-02-14 10:12:07] Firmware Revison: 0x04
[2019-02-14 10:12:07] Current Vout=5.18V, Iout=0.88A
[2019-02-14 10:12:07] System starts up because the button is clicked.
Todays's sunset: 2019-02-14 17:16:43+00:00
Tomorrow's sunrise 2019-02-15 07:19:46+00:00
[2019-02-14 10:12:26] I2C read 0x01 0x08 58 failed (result=), retrying 1 ...
[2019-02-14 10:12:27] [Warning] System and RTC time seems not synchronized, difference is 1550139147s. System time is "2019-02-14 10:12:27 GMT", while RTC time is "". Please synchronize the time first.
[2019-02-14 10:12:27] Schedule next shutdown at: 2019-02-15 12:10:00
[2019-02-14 10:12:27] [Warning] System and RTC time seems not synchronized, difference is 1550139147s. System time is "2019-02-14 10:12:27 GMT", while RTC time is "". Please synchronize the time first.
[2019-02-14 10:12:27] Schedule next startup at: 2019-02-15 17:08:34
date: invalid date ‘19-25-8 15:18:6’
--------------- 2019-02-14 10:12:27 ---------------
date: invalid date ‘19-25-8 15:18:7’
date: invalid date ‘@’
[Warning] System and RTC time seems not synchronized, difference is 1550139148s.
System time is "2019-02-14 10:12:28 GMT", while RTC time is "".
Please synchronize the time first.
[2019-02-14 10:12:28] [Warning] System and RTC time seems not synchronized, difference is 1550139148s. System time is "2019-02-14 10:12:28 GMT", while RTC time is "". Please synchronize the time first.
Schedule next shutdown at: 2019-02-15 12:10:00
[2019-02-14 10:12:28] Schedule next shutdown at: 2019-02-15 12:10:00
date: invalid date ‘19-25-8 15:18:7’
date: invalid date ‘@’
[Warning] System and RTC time seems not synchronized, difference is 1550139148s.
System time is "2019-02-14 10:12:28 GMT", while RTC time is "".
Please synchronize the time first.
[2019-02-14 10:12:28] [Warning] System and RTC time seems not synchronized, difference is 1550139148s. System time is "2019-02-14 10:12:28 GMT", while RTC time is "". Please synchronize the time first.
Schedule next startup at:  2019-02-15 17:08:34
[2019-02-14 10:12:28] Schedule next startup at: 2019-02-15 17:08:34
---------------------------------------------------
Witty Pi schedule generated and saved to /home/pi/wittypi/schedules/witty_pi_schedule_2019_2_10.wpi.
[2019-02-14 10:12:31] Send out the SYS_UP signal via GPIO-17 pin.
[2019-02-14 10:12:31] Pending for incoming shutdown command...
                                                                                                                                                                                                                                                                                                                    [xxxx-xx-xx xx:xx:xx] Witty Pi daemon (v4.13) is started.
[xxxx-xx-xx xx:xx:xx] Running on Raspberry Pi 4 Model B Rev 1.5
[xxxx-xx-xx xx:xx:xx] Seems RTC has good time, write RTC time into system
[xxxx-xx-xx xx:xx:xx] Writing RTC time to system...
[2019-02-14 10:12:06] Done :-)
[2019-02-14 10:12:06] Firmware ID: 0x37
[2019-02-14 10:12:06] Firmware Revison: 0x04
[2019-02-14 10:12:06] Current Vout=5.16V, Iout=0.88A
[2019-02-14 10:12:07] System starts up because the button is clicked.
[2019-02-14 10:12:13] [Warning] System and RTC time seems not synchronized, difference is 1550139133s. System time is "2019-02-14 10:12:13 GMT", while RTC time is "". Please synchronize the time first.
[2019-02-14 10:12:13] Schedule next shutdown at: 2019-02-15 12:10:00
[2019-02-14 10:12:13] [Warning] System and RTC time seems not synchronized, difference is 1550139133s. System time is "2019-02-14 10:12:13 GMT", while RTC time is "". Please synchronize the time first.
[2019-02-14 10:12:13] Schedule next startup at: 2019-02-15 17:08:34
Todays's sunset: 2019-02-14 17:16:43+00:00
Tomorrow's sunrise 2019-02-15 07:19:46+00:00
date: invalid date ‘19-25-14 10:22:14’
--------------- 2019-02-14 10:12:14 ---------------
date: invalid date ‘19-25-14 10:22:15’
date: invalid date ‘@’
[Warning] System and RTC time seems not synchronized, difference is 1550139135s.
System time is "2019-02-14 10:12:15 GMT", while RTC time is "".
Please synchronize the time first.
[2019-02-14 10:12:15] [Warning] System and RTC time seems not synchronized, difference is 1550139135s. System time is "2019-02-14 10:12:15 GMT", while RTC time is "". Please synchronize the time first.
Schedule next shutdown at: 2019-02-15 12:10:00
[2019-02-14 10:12:15] Schedule next shutdown at: 2019-02-15 12:10:00
date: invalid date ‘19-25-14 10:22:15’
date: invalid date ‘@’
[Warning] System and RTC time seems not synchronized, difference is 1550139135s.
System time is "2019-02-14 10:12:15 GMT", while RTC time is "".
Please synchronize the time first.
[2019-02-14 10:12:15] [Warning] System and RTC time seems not synchronized, difference is 1550139135s. System time is "2019-02-14 10:12:15 GMT", while RTC time is "". Please synchronize the time first.
Schedule next startup at:  2019-02-15 17:08:34
[2019-02-14 10:12:15] Schedule next startup at: 2019-02-15 17:08:34
---------------------------------------------------
Witty Pi schedule generated and saved to /home/pi/wittypi/schedules/witty_pi_schedule_2019_2_10.wpi.
[2019-02-14 10:12:18] Send out the SYS_UP signal via GPIO-17 pin.
[2019-02-14 10:12:18] Pending for incoming shutdown command...
[2019-02-14 10:13:15] Shutting down system because input voltge is too low: Vin=3.26V, Vlow=4V
Shutting down in 15 seconds...Thu 14 Feb 10:13:15 GMT 2019
Good Bye Thu 14 Feb 10:13:30 GMT 2019
[2019-02-14 10:13:30] Halting all processes and then shutdown Raspberry Pi...
[xxxx-xx-xx xx:xx:xx] Witty Pi daemon (v4.13) is started.
[xxxx-xx-xx xx:xx:xx] Running on Raspberry Pi 4 Model B Rev 1.5
[xxxx-xx-xx xx:xx:xx] Seems RTC has good time, write RTC time into system
[xxxx-xx-xx xx:xx:xx] Writing RTC time to system...
[2019-02-14 10:12:06] Done :-)
[2019-02-14 10:12:06] System was previously shut down because of low-voltage.
[2019-02-14 10:12:06] Firmware ID: 0x37
[2019-02-14 10:12:06] Firmware Revison: 0x04
[2019-02-14 10:12:06] Current Vout=5.18V, Iout=0.83A
[2019-02-14 10:12:06] System starts up because the button is clicked.
Todays's sunset: 2019-02-14 17:16:43+00:00
Tomorrow's sunrise 2019-02-15 07:19:46+00:00
[2019-02-14 10:12:13] I2C read 0x01 0x08 63 failed (result=), retrying 1 ...
Error: Read failed
[2019-02-14 10:12:14] I2C read 0x01 0x08 63 failed (result=), retrying 2 ...
[2019-02-14 10:12:14] [Warning] System and RTC time seems not synchronized, difference is 1550139134s. System time is "2019-02-14 10:12:14 GMT", while RTC time is "". Please synchronize the time first.
[2019-02-14 10:12:15] Schedule next shutdown at: 2019-02-15 12:10:00
[2019-02-14 10:12:15] [Warning] System and RTC time seems not synchronized, difference is 1550139135s. System time is "2019-02-14 10:12:15 GMT", while RTC time is "". Please synchronize the time first.
[2019-02-14 10:12:15] Schedule next startup at: 2019-02-15 17:08:34
[2019-02-14 10:12:15] I2C read 0x01 0x08 58 failed (result=), retrying 1 ...
date: invalid date ‘19-25-14 10:28:5’
--------------- 2019-02-14 10:12:15 ---------------
date: invalid date ‘19-25-14 10:28:6’
date: invalid date ‘@’
[Warning] System and RTC time seems not synchronized, difference is 1550139135s.
System time is "2019-02-14 10:12:15 GMT", while RTC time is "".
Please synchronize the time first.
[2019-02-14 10:12:16] [Warning] System and RTC time seems not synchronized, difference is 1550139135s. System time is "2019-02-14 10:12:15 GMT", while RTC time is "". Please synchronize the time first.
Schedule next shutdown at: 2019-02-15 12:10:00
[2019-02-14 10:12:16] Schedule next shutdown at: 2019-02-15 12:10:00
date: invalid date ‘19-25-14 10:28:6’
date: invalid date ‘@’
[Warning] System and RTC time seems not synchronized, difference is 1550139136s.
System time is "2019-02-14 10:12:16 GMT", while RTC time is "".
Please synchronize the time first.
[2019-02-14 10:12:16] [Warning] System and RTC time seems not synchronized, difference is 1550139136s. System time is "2019-02-14 10:12:16 GMT", while RTC time is "". Please synchronize the time first.
Schedule next startup at:  2019-02-15 17:08:34
[2019-02-14 10:12:16] Schedule next startup at: 2019-02-15 17:08:34
---------------------------------------------------
Witty Pi schedule generated and saved to /home/pi/wittypi/schedules/witty_pi_schedule_2019_2_10.wpi.
[2019-02-14 10:12:19] Send out the SYS_UP signal via GPIO-17 pin.
[2019-02-14 10:12:19] Pending for incoming shutdown command...
[2019-02-14 10:12:49] [Warning] System and RTC time seems not synchronized, difference is 1550139169s. System time is "2019-02-14 10:12:49 GMT", while RTC time is "". Please synchronize the time first.
[2019-02-14 10:12:49] Schedule next shutdown at: 2019-02-15 12:10:00
[2019-02-14 10:12:49] [Warning] System and RTC time seems not synchronized, difference is 1550139169s. System time is "2019-02-14 10:12:49 GMT", while RTC time is "". Please synchronize the time first.
[2019-02-14 10:12:49] Schedule next startup at: 2019-02-15 17:08:34
[2024-07-22 11:45:19] Writing system time to RTC...
<2024-07-22 11:45:19> Done :-)
[2024-07-22 11:45:22] Schedule next shutdown at: 2024-07-23 05:25:37
[2024-07-22 11:45:22] Schedule next startup at: 2024-07-23 11:50:00
[2024-07-22 11:46:41] Writing system time to RTC...
<2024-07-22 11:46:41> Done :-)
[2024-07-22 11:48:00] Schedule next shutdown at: 2024-07-23 05:25:37
[2024-07-22 11:48:00] Schedule next startup at: 2024-07-23 11:50:00
[2024-07-22 12:45:28] Shutting down system because input voltge is too low: Vin=3.38V, Vlow=4V
Shutting down in 15 seconds...Mon 22 Jul 12:45:28 BST 2024
Good Bye Mon 22 Jul 12:45:43 BST 2024
[2024-07-22 12:45:43] Halting all processes and then shutdown Raspberry Pi...
[xxxx-xx-xx xx:xx:xx] Witty Pi daemon (v4.13) is started.
[xxxx-xx-xx xx:xx:xx] Running on Raspberry Pi 4 Model B Rev 1.5
[xxxx-xx-xx xx:xx:xx] Seems RTC has good time, write RTC time into system
[xxxx-xx-xx xx:xx:xx] Writing RTC time to system...
[2019-02-14 10:12:07] Done :-)
[2019-02-14 10:12:07] Firmware ID: 0x37
[2019-02-14 10:12:07] Firmware Revison: 0x04
[2019-02-14 10:12:07] Current Vin=4.06V, Vout=5.25V, Iout=0.58A
[2019-02-14 10:12:07] System starts up because USB 5V is connected.
[2019-02-14 10:12:13] [Warning] System and RTC time seems not synchronized, difference is 1550139133s. System time is "2019-02-14 10:12:13 GMT", while RTC time is "". Please synchronize the time first.
[2019-02-14 10:12:13] Schedule next shutdown at: 2024-07-21 12:10:00
[2019-02-14 10:12:13] [Warning] System and RTC time seems not synchronized, difference is 1550139133s. System time is "2019-02-14 10:12:13 GMT", while RTC time is "". Please synchronize the time first.
[2019-02-14 10:12:13] Schedule next startup at: 2024-07-22 20:58:50
Todays's sunset: 2019-02-14 17:16:43+00:00
Tomorrow's sunrise 2019-02-15 07:19:46+00:00
date: invalid date ‘24-25-6 22:18:3’
--------------- 2019-02-14 10:12:14 ---------------
date: invalid date ‘24-25-6 22:18:4’
date: invalid date ‘@’
[Warning] System and RTC time seems not synchronized, difference is 1550139135s.
System time is "2019-02-14 10:12:15 GMT", while RTC time is "".
Please synchronize the time first.
[2019-02-14 10:12:15] [Warning] System and RTC time seems not synchronized, difference is 1550139135s. System time is "2019-02-14 10:12:15 GMT", while RTC time is "". Please synchronize the time first.
Schedule next shutdown at: 2019-02-15 12:10:00
[2019-02-14 10:12:15] Schedule next shutdown at: 2019-02-15 12:10:00
date: invalid date ‘24-25-6 22:18:4’
date: invalid date ‘@’
[Warning] System and RTC time seems not synchronized, difference is 1550139135s.
System time is "2019-02-14 10:12:15 GMT", while RTC time is "".
Please synchronize the time first.
[2019-02-14 10:12:15] [Warning] System and RTC time seems not synchronized, difference is 1550139135s. System time is "2019-02-14 10:12:15 GMT", while RTC time is "". Please synchronize the time first.
Schedule next startup at:  2019-02-15 17:08:34
[2019-02-14 10:12:15] Schedule next startup at: 2019-02-15 17:08:34
---------------------------------------------------
Witty Pi schedule generated and saved to /home/pi/wittypi/schedules/witty_pi_schedule_2019_2_10.wpi.
[2019-02-14 10:12:18] Send out the SYS_UP signal via GPIO-17 pin.
[2019-02-14 10:12:18] Pending for incoming shutdown command...
[2019-02-14 10:15:04] Shutting down system because input voltge is too low: Vin=3.81V, Vlow=4V
Shutting down in 15 seconds...Thu 14 Feb 10:15:04 GMT 2019
Good Bye Thu 14 Feb 10:15:19 GMT 2019
[xxxx-xx-xx xx:xx:xx] Witty Pi daemon (v4.13) is started.
[xxxx-xx-xx xx:xx:xx] Running on Raspberry Pi 4 Model B Rev 1.5
[xxxx-xx-xx xx:xx:xx] Seems RTC has good time, write RTC time into system
[xxxx-xx-xx xx:xx:xx] Writing RTC time to system...
[2019-02-14 10:12:07] Done :-)
[2019-02-14 10:12:07] System was previously shut down because of low-voltage.
[2019-02-14 10:12:07] Firmware ID: 0x37
[2019-02-14 10:12:07] Firmware Revison: 0x04
[2019-02-14 10:12:07] Current Vin=4V, Vout=5.17V, Iout=0.73A
[2019-02-14 10:12:07] System starts up because the button is clicked.
[2019-02-14 10:12:13] [Warning] System and RTC time seems not synchronized, difference is 1550139133s. System time is "2019-02-14 10:12:13 GMT", while RTC time is "". Please synchronize the time first.
[2019-02-14 10:12:13] Schedule next shutdown at: 2019-02-15 12:10:00
[2019-02-14 10:12:13] [Warning] System and RTC time seems not synchronized, difference is 1550139133s. System time is "2019-02-14 10:12:13 GMT", while RTC time is "". Please synchronize the time first.
[2019-02-14 10:12:13] Schedule next startup at: 2019-02-15 17:08:34
Todays's sunset: 2019-02-14 17:16:43+00:00
Tomorrow's sunrise 2019-02-15 07:19:46+00:00
date: invalid date ‘85-0-0 0:0:47’
--------------- 2019-02-14 10:12:14 ---------------
date: invalid date ‘85-0-0 0:0:48’
date: invalid date ‘@’
[Warning] System and RTC time seems not synchronized, difference is 1550139135s.
System time is "2019-02-14 10:12:15 GMT", while RTC time is "".
Please synchronize the time first.
[2019-02-14 10:12:15] [Warning] System and RTC time seems not synchronized, difference is 1550139135s. System time is "2019-02-14 10:12:15 GMT", while RTC time is "". Please synchronize the time first.
Schedule next shutdown at: 2019-02-15 12:10:00
[2019-02-14 10:12:15] Schedule next shutdown at: 2019-02-15 12:10:00
date: invalid date ‘85-0-0 0:0:48’
date: invalid date ‘@’
[Warning] System and RTC time seems not synchronized, difference is 1550139135s.
System time is "2019-02-14 10:12:15 GMT", while RTC time is "".
Please synchronize the time first.
[2019-02-14 10:12:15] [Warning] System and RTC time seems not synchronized, difference is 1550139135s. System time is "2019-02-14 10:12:15 GMT", while RTC time is "". Please synchronize the time first.
Schedule next startup at:  2019-02-15 17:08:34
[2019-02-14 10:12:15] Schedule next startup at: 2019-02-15 17:08:34
---------------------------------------------------
Witty Pi schedule generated and saved to /home/pi/wittypi/schedules/witty_pi_schedule_2019_2_10.wpi.
[2019-02-14 10:12:18] Send out the SYS_UP signal via GPIO-17 pin.
[2019-02-14 10:12:18] Pending for incoming shutdown command...
[2019-02-14 10:12:24] Shutting down system because input voltge is too low: Vin=3.93V, Vlow=4V
Shutting down in 15 seconds...Thu 14 Feb 10:12:24 GMT 2019
Good Bye Thu 14 Feb 10:12:40 GMT 2019
[xxxx-xx-xx xx:xx:xx] Witty Pi daemon (v4.13) is started.
[xxxx-xx-xx xx:xx:xx] Running on Raspberry Pi 4 Model B Rev 1.5
[xxxx-xx-xx xx:xx:xx] Seems RTC has good time, write RTC time into system
[xxxx-xx-xx xx:xx:xx] Writing RTC time to system...
[2019-02-14 10:12:07] Done :-)
[2019-02-14 10:12:07] Firmware ID: 0x37
[2019-02-14 10:12:07] Firmware Revison: 0x04
[2019-02-14 10:12:07] Current Vout=5.18V, Iout=0.9A
[2019-02-14 10:12:07] System starts up because USB 5V is connected.
[2019-02-14 10:12:13] [Warning] System and RTC time seems not synchronized, difference is 1550139133s. System time is "2019-02-14 10:12:13 GMT", while RTC time is "". Please synchronize the time first.
[2019-02-14 10:12:13] Schedule next shutdown at: 2019-02-15 12:10:00
[2019-02-14 10:12:13] [Warning] System and RTC time seems not synchronized, difference is 1550139133s. System time is "2019-02-14 10:12:13 GMT", while RTC time is "". Please synchronize the time first.
[2019-02-14 10:12:13] Schedule next startup at: 2019-02-15 17:08:34
Todays's sunset: 2019-02-14 17:16:43+00:00
Tomorrow's sunrise 2019-02-15 07:19:46+00:00
date: invalid date ‘85-0-0 4:15:33’
--------------- 2019-02-14 10:12:14 ---------------
date: invalid date ‘85-0-0 4:15:34’
date: invalid date ‘@’
[Warning] System and RTC time seems not synchronized, difference is 1550139135s.
System time is "2019-02-14 10:12:15 GMT", while RTC time is "".
Please synchronize the time first.
[2019-02-14 10:12:15] [Warning] System and RTC time seems not synchronized, difference is 1550139135s. System time is "2019-02-14 10:12:15 GMT", while RTC time is "". Please synchronize the time first.
Schedule next shutdown at: 2019-02-15 12:10:00
[2019-02-14 10:12:15] Schedule next shutdown at: 2019-02-15 12:10:00
date: invalid date ‘85-0-0 4:15:34’
date: invalid date ‘@’
[Warning] System and RTC time seems not synchronized, difference is 1550139135s.
System time is "2019-02-14 10:12:15 GMT", while RTC time is "".
Please synchronize the time first.
[2019-02-14 10:12:15] [Warning] System and RTC time seems not synchronized, difference is 1550139135s. System time is "2019-02-14 10:12:15 GMT", while RTC time is "". Please synchronize the time first.
Schedule next startup at:  2019-02-15 17:08:34
[2019-02-14 10:12:15] Schedule next startup at: 2019-02-15 17:08:34
---------------------------------------------------
Witty Pi schedule generated and saved to /home/pi/wittypi/schedules/witty_pi_schedule_2019_2_10.wpi.
[2019-02-14 10:12:18] Send out the SYS_UP signal via GPIO-17 pin.
[2019-02-14 10:12:19] Pending for incoming shutdown command...
[xxxx-xx-xx xx:xx:xx] Witty Pi daemon (v4.13) is started.
[xxxx-xx-xx xx:xx:xx] Running on Raspberry Pi 4 Model B Rev 1.5
[xxxx-xx-xx xx:xx:xx] Seems RTC has good time, write RTC time into system
[xxxx-xx-xx xx:xx:xx] Writing RTC time to system...
[2019-02-14 10:12:07] Done :-)
[2019-02-14 10:12:07] Firmware ID: 0x37
[2019-02-14 10:12:07] Firmware Revison: 0x04
[2019-02-14 10:12:07] Current Vin=3.93V, Vout=5.18V, Iout=0.75A
[2019-02-14 10:12:07] System starts up because USB 5V is connected.
[2019-02-14 10:12:13] [Warning] System and RTC time seems not synchronized, difference is 1550139133s. System time is "2019-02-14 10:12:13 GMT", while RTC time is "". Please synchronize the time first.
[2019-02-14 10:12:13] Schedule next shutdown at: 2019-02-15 12:10:00
Todays's sunset: 2019-02-14 17:16:43+00:00
Tomorrow's sunrise 2019-02-15 07:19:46+00:00
[2019-02-14 10:12:13] [Warning] System and RTC time seems not synchronized, difference is 1550139133s. System time is "2019-02-14 10:12:13 GMT", while RTC time is "". Please synchronize the time first.
[2019-02-14 10:12:13] Schedule next startup at: 2019-02-15 17:08:34
date: invalid date ‘85-0-0 4:40:43’
--------------- 2019-02-14 10:12:14 ---------------
date: invalid date ‘85-0-0 4:40:43’
date: invalid date ‘@’
[Warning] System and RTC time seems not synchronized, difference is 1550139135s.
System time is "2019-02-14 10:12:15 GMT", while RTC time is "".
Please synchronize the time first.
[2019-02-14 10:12:15] [Warning] System and RTC time seems not synchronized, difference is 1550139135s. System time is "2019-02-14 10:12:15 GMT", while RTC time is "". Please synchronize the time first.
Schedule next shutdown at: 2019-02-15 12:10:00
[2019-02-14 10:12:15] Schedule next shutdown at: 2019-02-15 12:10:00
date: invalid date ‘85-0-0 4:40:43’
date: invalid date ‘@’
[Warning] System and RTC time seems not synchronized, difference is 1550139135s.
System time is "2019-02-14 10:12:15 GMT", while RTC time is "".
Please synchronize the time first.
[2019-02-14 10:12:15] [Warning] System and RTC time seems not synchronized, difference is 1550139135s. System time is "2019-02-14 10:12:15 GMT", while RTC time is "". Please synchronize the time first.
Schedule next startup at:  2019-02-15 17:08:34
[2019-02-14 10:12:15] Schedule next startup at: 2019-02-15 17:08:34
---------------------------------------------------
Witty Pi schedule generated and saved to /home/pi/wittypi/schedules/witty_pi_schedule_2019_2_10.wpi.
[2019-02-14 10:12:18] Send out the SYS_UP signal via GPIO-17 pin.
[2019-02-14 10:12:19] Pending for incoming shutdown command...
[2019-02-14 10:15:09] Shutting down system because button is clicked or GPIO-4 is pulled down.
Shutting down in 15 seconds...Thu 14 Feb 10:15:09 GMT 2019
Good Bye Thu 14 Feb 10:15:24 GMT 2019
[2019-02-14 10:15:25] Halting all processes and then shutdown Raspberry Pi...
[xxxx-xx-xx xx:xx:xx] Witty Pi daemon (v4.13) is started.
[xxxx-xx-xx xx:xx:xx] Running on Raspberry Pi 4 Model B Rev 1.5
[xxxx-xx-xx xx:xx:xx] Seems RTC has good time, write RTC time into system
[xxxx-xx-xx xx:xx:xx] Writing RTC time to system...
[2019-02-14 10:12:07] Done :-)
[2019-02-14 10:12:07] Firmware ID: 0x37
[2019-02-14 10:12:07] Firmware Revison: 0x04
[2019-02-14 10:12:07] Current Vout=5.19V, Iout=0.79A
[2019-02-14 10:12:07] System starts up because USB 5V is connected.
[2019-02-14 10:12:13] [Warning] System and RTC time seems not synchronized, difference is 1550139133s. System time is "2019-02-14 10:12:13 GMT", while RTC time is "". Please synchronize the time first.
[2019-02-14 10:12:13] Schedule next shutdown at: 2019-02-15 12:10:00
[2019-02-14 10:12:13] [Warning] System and RTC time seems not synchronized, difference is 1550139133s. System time is "2019-02-14 10:12:13 GMT", while RTC time is "". Please synchronize the time first.
[2019-02-14 10:12:13] Schedule next startup at: 2019-02-15 17:08:34
Todays's sunset: 2019-02-14 17:16:43+00:00
Tomorrow's sunrise 2019-02-15 07:19:46+00:00
date: invalid date ‘85-0-0 4:49:32’
--------------- 2019-02-14 10:12:14 ---------------
date: invalid date ‘85-0-0 4:49:33’
date: invalid date ‘@’
[Warning] System and RTC time seems not synchronized, difference is 1550139135s.
System time is "2019-02-14 10:12:15 GMT", while RTC time is "".
Please synchronize the time first.
[2019-02-14 10:12:15] [Warning] System and RTC time seems not synchronized, difference is 1550139135s. System time is "2019-02-14 10:12:15 GMT", while RTC time is "". Please synchronize the time first.
Schedule next shutdown at: 2019-02-15 12:10:00
[2019-02-14 10:12:15] Schedule next shutdown at: 2019-02-15 12:10:00
date: invalid date ‘85-0-0 4:49:33’
date: invalid date ‘@’
[Warning] System and RTC time seems not synchronized, difference is 1550139135s.
System time is "2019-02-14 10:12:15 GMT", while RTC time is "".
Please synchronize the time first.
[2019-02-14 10:12:15] [Warning] System and RTC time seems not synchronized, difference is 1550139135s. System time is "2019-02-14 10:12:15 GMT", while RTC time is "". Please synchronize the time first.
Schedule next startup at:  2019-02-15 17:08:34
[2019-02-14 10:12:15] Schedule next startup at: 2019-02-15 17:08:34
---------------------------------------------------
Witty Pi schedule generated and saved to /home/pi/wittypi/schedules/witty_pi_schedule_2019_2_10.wpi.
[2019-02-14 10:12:18] Send out the SYS_UP signal via GPIO-17 pin.
[2019-02-14 10:12:18] Pending for incoming shutdown command...
[2024-07-29 15:21:22] Schedule next shutdown at: 2024-07-30 05:35:48
[2024-07-29 15:21:22] Schedule next startup at: 2024-07-30 11:50:00
[2024-07-30 00:05:02] Schedule next shutdown at: 2024-07-30 05:35:48
[2024-07-30 00:05:03] Schedule next startup at: 2024-07-30 11:50:00
[2024-07-30 05:35:50] Shutting down system because scheduled shutdown is due.
Shutting down in 15 seconds...Tue 30 Jul 05:35:50 BST 2024
/home/pi/scripts/control_OFF_lights.py:8: RuntimeWarning: This channel is already in use, continuing anyway.  Use GPIO.setwarnings(False) to disable warnings.
  GPIO.setup(21, GPIO.OUT)
/home/pi/scripts/control_OFF_lights.py:9: RuntimeWarning: This channel is already in use, continuing anyway.  Use GPIO.setwarnings(False) to disable warnings.
  GPIO.setup(20, GPIO.OUT)
Good Bye Tue 30 Jul 05:36:05 BST 2024
[2024-07-30 05:36:05] Halting all processes and then shutdown Raspberry Pi...
[xxxx-xx-xx xx:xx:xx] Witty Pi daemon (v4.13) is started.
[xxxx-xx-xx xx:xx:xx] Running on Raspberry Pi 4 Model B Rev 1.5
[xxxx-xx-xx xx:xx:xx] Seems RTC has good time, write RTC time into system
[xxxx-xx-xx xx:xx:xx] Writing RTC time to system...
[2024-07-30 11:50:21] Done :-)
[2024-07-30 11:50:21] Firmware ID: 0x37
[2024-07-30 11:50:21] Firmware Revison: 0x04
[2024-07-30 11:50:21] Current Vout=5.19V, Iout=0.73A
[2024-07-30 11:50:21] System starts up because scheduled startup is due.
[2024-07-30 11:50:27] Schedule next shutdown at: 2024-07-31 12:10:00
[2024-07-30 11:50:27] Schedule next startup at: 2024-07-31 20:45:31
Todays's sunset: 2024-07-30 20:57:08+01:00
Tomorrow's sunrise 2024-07-31 05:27:19+01:00
--------------- 2024-07-30 11:50:29 ---------------
Schedule next shutdown at: 2024-07-31 12:10:00
[2024-07-30 11:50:29] Schedule next shutdown at: 2024-07-31 12:10:00
Schedule next startup at:  2024-07-31 20:45:31
[2024-07-30 11:50:29] Schedule next startup at: 2024-07-31 20:45:31
---------------------------------------------------
Witty Pi schedule generated and saved to /home/pi/wittypi/schedules/witty_pi_schedule_2024_7_28.wpi.
[2024-07-30 11:50:32] Send out the SYS_UP signal via GPIO-17 pin.
[2024-07-30 11:50:32] Pending for incoming shutdown command...
[2024-07-31 00:05:02] Schedule next shutdown at: 2024-07-31 12:10:00
[2024-07-31 00:05:02] Schedule next startup at: 2024-07-31 20:45:31
[2024-07-31 12:10:00] Shutting down system because scheduled shutdown is due.
Shutting down in 15 seconds...Wed 31 Jul 12:10:00 BST 2024
Good Bye Wed 31 Jul 12:10:15 BST 2024
[2024-07-31 12:10:16] Halting all processes and then shutdown Raspberry Pi...
[xxxx-xx-xx xx:xx:xx] Witty Pi daemon (v4.13) is started.
[xxxx-xx-xx xx:xx:xx] Running on Raspberry Pi 4 Model B Rev 1.5
[xxxx-xx-xx xx:xx:xx] Seems RTC has good time, write RTC time into system
[xxxx-xx-xx xx:xx:xx] Writing RTC time to system...
[2024-07-31 12:10:49] Done :-)
[2024-07-31 12:10:49] Firmware ID: 0x37
[2024-07-31 12:10:49] Firmware Revison: 0x04
[2024-07-31 12:10:49] Current Vout=5.17V, Iout=0.73A
[2024-07-31 12:10:49] System starts up because of the scheduled startup got delayed.
[2024-07-31 12:10:49] Maybe the scheduled startup was due when Pi was running, or Pi had been shut down but TXD stayed HIGH to prevent the power cut.
[2024-07-31 12:10:55] Schedule script is interrupted, revising the schedule...
[2024-07-31 12:10:55] Schedule next shutdown at: 2024-07-31 20:44:31
[2024-07-31 12:10:55] Schedule next startup at: 2024-07-31 20:45:31
Todays's sunset: 2024-07-31 20:55:31+01:00
Tomorrow's sunrise 2024-08-01 05:28:50+01:00
--------------- 2024-07-31 12:10:58 ---------------
Schedule next shutdown at: 2024-08-01 05:38:50
[2024-07-31 12:10:57] Schedule next shutdown at: 2024-08-01 05:38:50
Schedule next startup at:  2024-08-01 11:50:00
[2024-07-31 12:10:57] Schedule next startup at: 2024-08-01 11:50:00
---------------------------------------------------
Witty Pi schedule generated and saved to /home/pi/wittypi/schedules/witty_pi_schedule_2024_7_28.wpi.
[2024-07-31 12:11:00] Send out the SYS_UP signal via GPIO-17 pin.
[2024-07-31 12:11:00] Pending for incoming shutdown command...
[2024-08-01 00:05:02] Schedule next shutdown at: 2024-08-01 05:38:50
[2024-08-01 00:05:03] Schedule next startup at: 2024-08-01 11:50:00
[2024-08-01 05:38:50] Shutting down system because scheduled shutdown is due.
Shutting down in 15 seconds...Thu  1 Aug 05:38:50 BST 2024
Good Bye Thu  1 Aug 05:39:05 BST 2024
[2024-08-01 05:39:05] Halting all processes and then shutdown Raspberry Pi...
[xxxx-xx-xx xx:xx:xx] Witty Pi daemon (v4.13) is started.
[xxxx-xx-xx xx:xx:xx] Running on Raspberry Pi 4 Model B Rev 1.5
[xxxx-xx-xx xx:xx:xx] Seems RTC has good time, write RTC time into system
[xxxx-xx-xx xx:xx:xx] Writing RTC time to system...
[2024-08-01 11:50:21] Done :-)
[2024-08-01 11:50:21] Firmware ID: 0x37
[2024-08-01 11:50:21] Firmware Revison: 0x04
[2024-08-01 11:50:21] Current Vout=5.18V, Iout=1.13A
[2024-08-01 11:50:21] System starts up because scheduled startup is due.
[2024-08-01 11:50:27] Schedule next shutdown at: 2024-08-02 12:10:00
[2024-08-01 11:50:27] Schedule next startup at: 2024-08-02 20:42:12
Todays's sunset: 2024-08-01 20:53:52+01:00
Tomorrow's sunrise 2024-08-02 05:30:22+01:00
--------------- 2024-08-01 11:50:29 ---------------
Schedule next shutdown at: 2024-08-02 12:10:00
[2024-08-01 11:50:29] Schedule next shutdown at: 2024-08-02 12:10:00
Schedule next startup at:  2024-08-02 20:42:12
[2024-08-01 11:50:29] Schedule next startup at: 2024-08-02 20:42:12
---------------------------------------------------
Witty Pi schedule generated and saved to /home/pi/wittypi/schedules/witty_pi_schedule_2024_7_28.wpi.
[2024-08-01 11:50:32] Send out the SYS_UP signal via GPIO-17 pin.
[2024-08-01 11:50:32] Pending for incoming shutdown command...
[2024-08-02 00:05:02] Schedule next shutdown at: 2024-08-02 12:10:00
[2024-08-02 00:05:03] Schedule next startup at: 2024-08-02 20:42:12
[2024-08-02 12:10:00] Shutting down system because scheduled shutdown is due.
Shutting down in 15 seconds...Fri  2 Aug 12:10:00 BST 2024
Good Bye Fri  2 Aug 12:10:16 BST 2024
[2024-08-02 12:10:16] Halting all processes and then shutdown Raspberry Pi...
[xxxx-xx-xx xx:xx:xx] Witty Pi daemon (v4.13) is started.
[xxxx-xx-xx xx:xx:xx] Running on Raspberry Pi 4 Model B Rev 1.5
[xxxx-xx-xx xx:xx:xx] Seems RTC has good time, write RTC time into system
[xxxx-xx-xx xx:xx:xx] Writing RTC time to system...
[2024-08-02 12:10:49] Done :-)
[2024-08-02 12:10:49] Firmware ID: 0x37
[2024-08-02 12:10:49] Firmware Revison: 0x04
[2024-08-02 12:10:49] Current Vout=5.17V, Iout=1.01A
[2024-08-02 12:10:49] System starts up because of the scheduled startup got delayed.
[2024-08-02 12:10:49] Maybe the scheduled startup was due when Pi was running, or Pi had been shut down but TXD stayed HIGH to prevent the power cut.
[2024-08-02 12:10:55] Schedule script is interrupted, revising the schedule...
[2024-08-02 12:10:55] Schedule next shutdown at: 2024-08-02 20:41:12
[2024-08-02 12:10:55] Schedule next startup at: 2024-08-02 20:42:12
Todays's sunset: 2024-08-02 20:52:12+01:00
Tomorrow's sunrise 2024-08-03 05:31:54+01:00
--------------- 2024-08-02 12:10:58 ---------------
Schedule next shutdown at: 2024-08-03 05:41:54
[2024-08-02 12:10:57] Schedule next shutdown at: 2024-08-03 05:41:54
Schedule next startup at:  2024-08-03 11:50:00
[2024-08-02 12:10:57] Schedule next startup at: 2024-08-03 11:50:00
---------------------------------------------------
Witty Pi schedule generated and saved to /home/pi/wittypi/schedules/witty_pi_schedule_2024_7_28.wpi.
[2024-08-02 12:11:00] Send out the SYS_UP signal via GPIO-17 pin.
[2024-08-02 12:11:00] Pending for incoming shutdown command...
[2024-08-03 00:05:02] Schedule next shutdown at: 2024-08-03 05:41:54
[2024-08-03 00:05:02] Schedule next startup at: 2024-08-03 11:50:00
[2024-08-03 05:41:53] Shutting down system because scheduled shutdown is due.
Shutting down in 15 seconds...Sat  3 Aug 05:41:53 BST 2024
Good Bye Sat  3 Aug 05:42:09 BST 2024
[2024-08-03 05:42:09] Halting all processes and then shutdown Raspberry Pi...
[xxxx-xx-xx xx:xx:xx] Witty Pi daemon (v4.13) is started.
[xxxx-xx-xx xx:xx:xx] Running on Raspberry Pi 4 Model B Rev 1.5
[xxxx-xx-xx xx:xx:xx] Seems RTC has good time, write RTC time into system
[xxxx-xx-xx xx:xx:xx] Writing RTC time to system...
[2024-08-03 11:50:21] Done :-)
[2024-08-03 11:50:21] Firmware ID: 0x37
[2024-08-03 11:50:21] Firmware Revison: 0x04
[2024-08-03 11:50:21] Current Vout=5.18V, Iout=0.79A
[2024-08-03 11:50:21] System starts up because scheduled startup is due.
[2024-08-03 11:50:27] Schedule next shutdown at: 2024-08-04 12:10:00
[2024-08-03 11:50:27] Schedule next startup at: 2024-08-04 12:20:00
Todays's sunset: 2024-08-03 20:50:29+01:00
Tomorrow's sunrise 2024-08-04 05:33:27+01:00
--------------- 2024-08-03 11:50:29 ---------------
Schedule next shutdown at: 2024-08-04 12:10:00
[2024-08-03 11:50:29] Schedule next shutdown at: 2024-08-04 12:10:00
Schedule next startup at:  2024-08-04 12:20:00
[2024-08-03 11:50:29] Schedule next startup at: 2024-08-04 12:20:00
---------------------------------------------------
Witty Pi schedule generated and saved to /home/pi/wittypi/schedules/witty_pi_schedule_2024_7_28.wpi.
[2024-08-03 11:50:32] Send out the SYS_UP signal via GPIO-17 pin.
[2024-08-03 11:50:32] Pending for incoming shutdown command...
[2024-08-04 00:05:02] Schedule next shutdown at: 2024-08-04 12:10:00
[2024-08-04 00:05:03] Schedule next startup at: 2024-08-05 20:36:59
[2024-08-04 12:09:59] Shutting down system because scheduled shutdown is due.
Shutting down in 15 seconds...Sun  4 Aug 12:09:59 BST 2024
Good Bye Sun  4 Aug 12:10:15 BST 2024
[2024-08-04 12:10:15] Halting all processes and then shutdown Raspberry Pi...
[xxxx-xx-xx xx:xx:xx] Witty Pi daemon (v4.13) is started.
[xxxx-xx-xx xx:xx:xx] Running on Raspberry Pi 4 Model B Rev 1.5
[xxxx-xx-xx xx:xx:xx] Seems RTC has good time, write RTC time into system
[xxxx-xx-xx xx:xx:xx] Writing RTC time to system...
[2024-08-05 02:25:05] Done :-)
[2024-08-05 02:25:05] Firmware ID: 0x37
[2024-08-05 02:25:05] Firmware Revison: 0x04
[2024-08-05 02:25:05] Current Vout=5.17V, Iout=0.98A
[2024-08-05 02:25:05] System starts up because scheduled startup is due.
[2024-08-05 02:25:11] Schedule script is interrupted, revising the schedule...
[2024-08-05 02:25:11] Schedule next shutdown at: 2024-08-05 20:35:59
[2024-08-05 02:25:11] Schedule next startup at: 2024-08-05 20:36:59
Todays's sunset: 2024-08-05 20:46:59+01:00
Tomorrow's sunrise 2024-08-06 05:36:34+01:00
--------------- 2024-08-05 02:25:13 ---------------
Schedule next shutdown at: 2024-08-06 05:46:34
[2024-08-05 02:25:13] Schedule next shutdown at: 2024-08-06 05:46:34
Schedule next startup at:  2024-08-06 11:50:00
[2024-08-05 02:25:13] Schedule next startup at: 2024-08-06 11:50:00
---------------------------------------------------
Witty Pi schedule generated and saved to /home/pi/wittypi/schedules/witty_pi_schedule_2024_8_4.wpi.
[2024-08-05 02:25:16] Send out the SYS_UP signal via GPIO-17 pin.
[2024-08-05 02:25:16] Pending for incoming shutdown command...
[2024-08-06 00:05:03] Schedule next shutdown at: 2024-08-06 05:46:34
[2024-08-06 00:05:03] Schedule next startup at: 2024-08-06 11:50:00
[2024-08-06 05:46:35] Shutting down system because scheduled shutdown is due.
Shutting down in 15 seconds...Tue  6 Aug 05:46:35 BST 2024
Good Bye Tue  6 Aug 05:46:50 BST 2024
[2024-08-06 05:46:51] Halting all processes and then shutdown Raspberry Pi...
[xxxx-xx-xx xx:xx:xx] Witty Pi daemon (v4.13) is started.
[xxxx-xx-xx xx:xx:xx] Running on Raspberry Pi 4 Model B Rev 1.5
[xxxx-xx-xx xx:xx:xx] Seems RTC has good time, write RTC time into system
[xxxx-xx-xx xx:xx:xx] Writing RTC time to system...
[2024-08-06 11:50:21] Done :-)
[2024-08-06 11:50:21] Firmware ID: 0x37
[2024-08-06 11:50:21] Firmware Revison: 0x04
[2024-08-06 11:50:21] Current Vout=5.25V, Iout=0.75A
[2024-08-06 11:50:21] System starts up because scheduled startup is due.
[2024-08-06 11:50:27] Schedule next shutdown at: 2024-08-07 12:10:00
[2024-08-06 11:50:27] Schedule next startup at: 2024-08-07 20:33:23
Todays's sunset: 2024-08-06 20:45:12+01:00
Tomorrow's sunrise 2024-08-07 05:38:09+01:00
--------------- 2024-08-06 11:50:29 ---------------
Schedule next shutdown at: 2024-08-07 12:10:00
[2024-08-06 11:50:29] Schedule next shutdown at: 2024-08-07 12:10:00
Schedule next startup at:  2024-08-07 20:33:23
[2024-08-06 11:50:29] Schedule next startup at: 2024-08-07 20:33:23
---------------------------------------------------
Witty Pi schedule generated and saved to /home/pi/wittypi/schedules/witty_pi_schedule_2024_8_4.wpi.
[2024-08-06 11:50:32] Send out the SYS_UP signal via GPIO-17 pin.
[2024-08-06 11:50:32] Pending for incoming shutdown command...
[2024-08-07 00:05:02] Schedule next shutdown at: 2024-08-07 12:10:00
[2024-08-07 00:05:03] Schedule next startup at: 2024-08-07 20:33:23
[2024-08-07 12:09:59] Shutting down system because scheduled shutdown is due.
Shutting down in 15 seconds...Wed  7 Aug 12:10:00 BST 2024
Good Bye Wed  7 Aug 12:10:15 BST 2024
[2024-08-07 12:10:15] Halting all processes and then shutdown Raspberry Pi...
[xxxx-xx-xx xx:xx:xx] Witty Pi daemon (v4.13) is started.
[xxxx-xx-xx xx:xx:xx] Running on Raspberry Pi 4 Model B Rev 1.5
[xxxx-xx-xx xx:xx:xx] Seems RTC has good time, write RTC time into system
[xxxx-xx-xx xx:xx:xx] Writing RTC time to system...
[2024-08-07 12:10:48] Done :-)
[2024-08-07 12:10:48] Firmware ID: 0x37
[2024-08-07 12:10:48] Firmware Revison: 0x04
[2024-08-07 12:10:48] Current Vout=5.17V, Iout=1.09A
[2024-08-07 12:10:48] System starts up because of the scheduled startup got delayed.
[2024-08-07 12:10:48] Maybe the scheduled startup was due when Pi was running, or Pi had been shut down but TXD stayed HIGH to prevent the power cut.
[2024-08-07 12:10:54] Schedule script is interrupted, revising the schedule...
[2024-08-07 12:10:54] Schedule next shutdown at: 2024-08-07 20:32:23
[2024-08-07 12:10:54] Schedule next startup at: 2024-08-07 20:33:23
Todays's sunset: 2024-08-07 20:43:23+01:00
Tomorrow's sunrise 2024-08-08 05:39:43+01:00
--------------- 2024-08-07 12:10:57 ---------------
Schedule next shutdown at: 2024-08-08 05:49:43
[2024-08-07 12:10:56] Schedule next shutdown at: 2024-08-08 05:49:43
Schedule next startup at:  2024-08-08 11:50:00
[2024-08-07 12:10:56] Schedule next startup at: 2024-08-08 11:50:00
---------------------------------------------------
Witty Pi schedule generated and saved to /home/pi/wittypi/schedules/witty_pi_schedule_2024_8_4.wpi.
[2024-08-07 12:10:59] Send out the SYS_UP signal via GPIO-17 pin.
[2024-08-07 12:10:59] Pending for incoming shutdown command...
[2024-08-08 00:05:02] Schedule next shutdown at: 2024-08-08 05:49:43
[2024-08-08 00:05:02] Schedule next startup at: 2024-08-08 11:50:00
[2024-08-08 05:49:42] Shutting down system because scheduled shutdown is due.
Shutting down in 15 seconds...Thu  8 Aug 05:49:42 BST 2024
Good Bye Thu  8 Aug 05:49:58 BST 2024
[2024-08-08 05:49:58] Halting all processes and then shutdown Raspberry Pi...
[xxxx-xx-xx xx:xx:xx] Witty Pi daemon (v4.13) is started.
[xxxx-xx-xx xx:xx:xx] Running on Raspberry Pi 4 Model B Rev 1.5
[xxxx-xx-xx xx:xx:xx] Seems RTC has good time, write RTC time into system
[xxxx-xx-xx xx:xx:xx] Writing RTC time to system...
[2024-08-08 11:50:21] Done :-)
[2024-08-08 11:50:21] Firmware ID: 0x37
[2024-08-08 11:50:21] Firmware Revison: 0x04
[2024-08-08 11:50:21] Current Vout=5.23V, Iout=0.9A
[2024-08-08 11:50:21] System starts up because scheduled startup is due.
[2024-08-08 11:50:27] Schedule next shutdown at: 2024-08-09 12:10:00
[2024-08-08 11:50:27] Schedule next startup at: 2024-08-09 20:29:40
Todays's sunset: 2024-08-08 20:41:32+01:00
Tomorrow's sunrise 2024-08-09 05:41:18+01:00
--------------- 2024-08-08 11:50:30 ---------------
Schedule next shutdown at: 2024-08-09 12:10:00
[2024-08-08 11:50:29] Schedule next shutdown at: 2024-08-09 12:10:00
Schedule next startup at:  2024-08-09 20:29:40
[2024-08-08 11:50:29] Schedule next startup at: 2024-08-09 20:29:40
---------------------------------------------------
Witty Pi schedule generated and saved to /home/pi/wittypi/schedules/witty_pi_schedule_2024_8_4.wpi.
[2024-08-08 11:50:32] Send out the SYS_UP signal via GPIO-17 pin.
[2024-08-08 11:50:32] Pending for incoming shutdown command...
[2024-08-09 00:05:02] Schedule next shutdown at: 2024-08-09 12:10:00
[2024-08-09 00:05:03] Schedule next startup at: 2024-08-09 20:29:40
[2024-08-09 12:09:59] Shutting down system because scheduled shutdown is due.
Shutting down in 15 seconds...Fri  9 Aug 12:09:59 BST 2024
Good Bye Fri  9 Aug 12:10:14 BST 2024
[2024-08-09 12:10:15] Halting all processes and then shutdown Raspberry Pi...
[xxxx-xx-xx xx:xx:xx] Witty Pi daemon (v4.13) is started.
[xxxx-xx-xx xx:xx:xx] Running on Raspberry Pi 4 Model B Rev 1.5
[xxxx-xx-xx xx:xx:xx] Seems RTC has good time, write RTC time into system
[xxxx-xx-xx xx:xx:xx] Writing RTC time to system...
[2024-08-09 12:10:48] Done :-)
[2024-08-09 12:10:48] Firmware ID: 0x37
[2024-08-09 12:10:48] Firmware Revison: 0x04
[2024-08-09 12:10:48] Current Vout=5.18V, Iout=1.01A
[2024-08-09 12:10:48] System starts up because of the scheduled startup got delayed.
[2024-08-09 12:10:48] Maybe the scheduled startup was due when Pi was running, or Pi had been shut down but TXD stayed HIGH to prevent the power cut.
[2024-08-09 12:10:54] Schedule script is interrupted, revising the schedule...
[2024-08-09 12:10:54] Schedule next shutdown at: 2024-08-09 20:28:40
[2024-08-09 12:10:54] Schedule next startup at: 2024-08-09 20:29:40
Todays's sunset: 2024-08-09 20:39:40+01:00
Tomorrow's sunrise 2024-08-10 05:42:53+01:00
--------------- 2024-08-09 12:10:56 ---------------
Schedule next shutdown at: 2024-08-10 05:52:53
[2024-08-09 12:10:56] Schedule next shutdown at: 2024-08-10 05:52:53
Schedule next startup at:  2024-08-10 11:50:00
[2024-08-09 12:10:56] Schedule next startup at: 2024-08-10 11:50:00
---------------------------------------------------
Witty Pi schedule generated and saved to /home/pi/wittypi/schedules/witty_pi_schedule_2024_8_4.wpi.
[2024-08-09 12:10:59] Send out the SYS_UP signal via GPIO-17 pin.
[2024-08-09 12:10:59] Pending for incoming shutdown command...
[xxxx-xx-xx xx:xx:xx] Witty Pi daemon (v4.13) is started.
[xxxx-xx-xx xx:xx:xx] Running on Raspberry Pi 4 Model B Rev 1.4
[xxxx-xx-xx xx:xx:xx] I2C write 0x01 0x08 54 0 failed (result=0xff), retrying 1 ...
[xxxx-xx-xx xx:xx:xx] I2C write 0x01 0x08 54 0 failed (result=0xff), retrying 2 ...
[xxxx-xx-xx xx:xx:xx] I2C write 0x01 0x08 54 0 failed (result=0xff), retrying 3 ...
[xxxx-xx-xx xx:xx:xx] I2C write 0x01 0x08 54 0 failed (result=0xff), and no more retry.
[xxxx-xx-xx xx:xx:xx] Seems RTC has good time, write RTC time into system
[xxxx-xx-xx xx:xx:xx] Writing RTC time to system...
[xxxx-xx-xx xx:xx:xx] Witty Pi daemon (v4.13) is started.
[xxxx-xx-xx xx:xx:xx] Running on Raspberry Pi 4 Model B Rev 1.4
[xxxx-xx-xx xx:xx:xx] I2C read 0x01 0x08 54 failed (result=), retrying 1 ...
[xxxx-xx-xx xx:xx:xx] I2C read 0x01 0x08 54 failed (result=), retrying 2 ...
[xxxx-xx-xx xx:xx:xx] I2C read 0x01 0x08 54 failed (result=), retrying 3 ...
[xxxx-xx-xx xx:xx:xx] I2C read 0x01 0x08 54 failed (result=), and no more retry.
[xxxx-xx-xx xx:xx:xx] I2C write 0x01 0x08 54 0 failed (result=I2C read 0x01 0x08 54 failed (result=), and no more retry.), retrying 1 ...
[xxxx-xx-xx xx:xx:xx] I2C read 0x01 0x08 54 failed (result=), retrying 1 ...
[xxxx-xx-xx xx:xx:xx] I2C read 0x01 0x08 54 failed (result=), retrying 2 ...
[xxxx-xx-xx xx:xx:xx] I2C read 0x01 0x08 54 failed (result=), retrying 3 ...
[xxxx-xx-xx xx:xx:xx] I2C read 0x01 0x08 54 failed (result=), and no more retry.
[xxxx-xx-xx xx:xx:xx] I2C write 0x01 0x08 54 0 failed (result=I2C read 0x01 0x08 54 failed (result=), and no more retry.), retrying 2 ...
[xxxx-xx-xx xx:xx:xx] I2C read 0x01 0x08 54 failed (result=), retrying 1 ...
[xxxx-xx-xx xx:xx:xx] I2C read 0x01 0x08 54 failed (result=), retrying 2 ...
[xxxx-xx-xx xx:xx:xx] I2C read 0x01 0x08 54 failed (result=), retrying 3 ...
[xxxx-xx-xx xx:xx:xx] I2C read 0x01 0x08 54 failed (result=), and no more retry.
[xxxx-xx-xx xx:xx:xx] I2C write 0x01 0x08 54 0 failed (result=I2C read 0x01 0x08 54 failed (result=), and no more retry.), retrying 3 ...
[xxxx-xx-xx xx:xx:xx] I2C read 0x01 0x08 54 failed (result=), retrying 1 ...
[xxxx-xx-xx xx:xx:xx] I2C read 0x01 0x08 54 failed (result=), retrying 2 ...
[xxxx-xx-xx xx:xx:xx] I2C read 0x01 0x08 54 failed (result=), retrying 3 ...
[xxxx-xx-xx xx:xx:xx] I2C read 0x01 0x08 54 failed (result=), and no more retry.
[xxxx-xx-xx xx:xx:xx] I2C write 0x01 0x08 54 0 failed (result=I2C read 0x01 0x08 54 failed (result=), and no more retry.), and no more retry.
[xxxx-xx-xx xx:xx:xx] I2C read 0x01 0x08 64 failed (result=), retrying 1 ...
[xxxx-xx-xx xx:xx:xx] I2C read 0x01 0x08 64 failed (result=), retrying 2 ...
[xxxx-xx-xx xx:xx:xx] I2C read 0x01 0x08 64 failed (result=), retrying 3 ...
[xxxx-xx-xx xx:xx:xx] I2C read 0x01 0x08 64 failed (result=), and no more retry.
[xxxx-xx-xx xx:xx:xx] Seems RTC has good time, write RTC time into system
[xxxx-xx-xx xx:xx:xx] Writing RTC time to system...
[xxxx-xx-xx xx:xx:xx] I2C read 0x01 0x08 58 failed (result=), retrying 1 ...
[xxxx-xx-xx xx:xx:xx] I2C read 0x01 0x08 58 failed (result=), retrying 2 ...
[xxxx-xx-xx xx:xx:xx] I2C read 0x01 0x08 58 failed (result=), retrying 3 ...
[xxxx-xx-xx xx:xx:xx] I2C read 0x01 0x08 58 failed (result=), and no more retry.
[xxxx-xx-xx xx:xx:xx] I2C read 0x01 0x08 59 failed (result=), retrying 1 ...
[xxxx-xx-xx xx:xx:xx] I2C read 0x01 0x08 59 failed (result=), retrying 2 ...
[xxxx-xx-xx xx:xx:xx] I2C read 0x01 0x08 59 failed (result=), retrying 3 ...
[xxxx-xx-xx xx:xx:xx] I2C read 0x01 0x08 59 failed (result=), and no more retry.
[xxxx-xx-xx xx:xx:xx] I2C read 0x01 0x08 60 failed (result=), retrying 1 ...
[xxxx-xx-xx xx:xx:xx] I2C read 0x01 0x08 60 failed (result=), retrying 2 ...
[xxxx-xx-xx xx:xx:xx] I2C read 0x01 0x08 60 failed (result=), retrying 3 ...
[xxxx-xx-xx xx:xx:xx] I2C read 0x01 0x08 60 failed (result=), and no more retry.
[xxxx-xx-xx xx:xx:xx] I2C read 0x01 0x08 61 failed (result=), retrying 1 ...
[xxxx-xx-xx xx:xx:xx] I2C read 0x01 0x08 61 failed (result=), retrying 2 ...
[xxxx-xx-xx xx:xx:xx] I2C read 0x01 0x08 61 failed (result=), retrying 3 ...
[xxxx-xx-xx xx:xx:xx] I2C read 0x01 0x08 61 failed (result=), and no more retry.
[xxxx-xx-xx xx:xx:xx] I2C read 0x01 0x08 63 failed (result=), retrying 1 ...
[xxxx-xx-xx xx:xx:xx] I2C read 0x01 0x08 63 failed (result=), retrying 2 ...
[xxxx-xx-xx xx:xx:xx] I2C read 0x01 0x08 63 failed (result=), retrying 3 ...
[xxxx-xx-xx xx:xx:xx] I2C read 0x01 0x08 63 failed (result=), and no more retry.
[xxxx-xx-xx xx:xx:xx] I2C read 0x01 0x08 64 failed (result=), retrying 1 ...
[xxxx-xx-xx xx:xx:xx] I2C read 0x01 0x08 64 failed (result=), retrying 2 ...
[xxxx-xx-xx xx:xx:xx] I2C read 0x01 0x08 64 failed (result=), retrying 3 ...
[xxxx-xx-xx xx:xx:xx] I2C read 0x01 0x08 64 failed (result=), and no more retry.
[2019-02-14 10:13:29] Done :-)
[2019-02-14 10:13:30] I2C read 0x01 0x08 8 failed (result=), retrying 1 ...
[2019-02-14 10:13:32] I2C read 0x01 0x08 8 failed (result=), retrying 2 ...
[2019-02-14 10:13:34] I2C read 0x01 0x08 8 failed (result=), retrying 3 ...
[2019-02-14 10:13:35] I2C read 0x01 0x08 8 failed (result=), and no more retry.
[2019-02-14 10:13:37] I2C read 0x01 0x08 0 failed (result=), retrying 1 ...
[2019-02-14 10:13:38] I2C read 0x01 0x08 0 failed (result=), retrying 2 ...
[2019-02-14 10:13:40] I2C read 0x01 0x08 0 failed (result=), retrying 3 ...
[2019-02-14 10:13:41] I2C read 0x01 0x08 0 failed (result=), and no more retry.
[2019-02-14 10:13:41] Firmware ID: I2C read 0x01 0x08 0 failed (result=), and no more retry.
[2019-02-14 10:13:43] I2C read 0x01 0x08 12 failed (result=), retrying 1 ...
[2019-02-14 10:13:45] I2C read 0x01 0x08 12 failed (result=), retrying 2 ...
[2019-02-14 10:13:46] I2C read 0x01 0x08 12 failed (result=), retrying 3 ...
[2019-02-14 10:13:47] I2C read 0x01 0x08 12 failed (result=), and no more retry.
[2019-02-14 10:13:47] Firmware Revison: I2C read 0x01 0x08 12 failed (result=), and no more retry.
[2019-02-14 10:13:49] I2C read 0x01 0x08 3 failed (result=), retrying 1 ...
[2019-02-14 10:13:51] I2C read 0x01 0x08 3 failed (result=), retrying 2 ...
[2019-02-14 10:13:52] I2C read 0x01 0x08 3 failed (result=), retrying 3 ...
[2019-02-14 10:13:53] I2C read 0x01 0x08 3 failed (result=), and no more retry.
[2019-02-14 10:13:55] I2C read 0x01 0x08 4 failed (result=), retrying 1 ...
[2019-02-14 10:13:57] I2C read 0x01 0x08 4 failed (result=), retrying 2 ...
[2019-02-14 10:13:59] I2C read 0x01 0x08 4 failed (result=), retrying 3 ...
[2019-02-14 10:13:59] I2C read 0x01 0x08 4 failed (result=), and no more retry.
[2019-02-14 10:14:01] I2C read 0x01 0x08 5 failed (result=), retrying 1 ...
[2019-02-14 10:14:03] I2C read 0x01 0x08 5 failed (result=), retrying 2 ...
[2019-02-14 10:14:05] I2C read 0x01 0x08 5 failed (result=), retrying 3 ...
[2019-02-14 10:14:06] I2C read 0x01 0x08 5 failed (result=), and no more retry.
[2019-02-14 10:14:07] I2C read 0x01 0x08 6 failed (result=), retrying 1 ...
[2019-02-14 10:14:09] I2C read 0x01 0x08 6 failed (result=), retrying 2 ...
[2019-02-14 10:14:11] I2C read 0x01 0x08 6 failed (result=), retrying 3 ...
[2019-02-14 10:14:12] I2C read 0x01 0x08 6 failed (result=), and no more retry.
[2019-02-14 10:14:14] I2C read 0x01 0x08 7 failed (result=), retrying 1 ...
[2019-02-14 10:14:15] I2C read 0x01 0x08 7 failed (result=), retrying 2 ...
[2019-02-14 10:14:17] I2C read 0x01 0x08 7 failed (result=), retrying 3 ...
[2019-02-14 10:14:18] I2C read 0x01 0x08 7 failed (result=), and no more retry.
[2019-02-14 10:14:20] I2C read 0x01 0x08 1 failed (result=), retrying 1 ...
[2019-02-14 10:14:21] I2C read 0x01 0x08 1 failed (result=), retrying 2 ...
[2019-02-14 10:14:23] I2C read 0x01 0x08 1 failed (result=), retrying 3 ...
[2019-02-14 10:14:24] I2C read 0x01 0x08 1 failed (result=), and no more retry.
[2019-02-14 10:14:26] I2C read 0x01 0x08 2 failed (result=), retrying 1 ...
[2019-02-14 10:14:28] I2C read 0x01 0x08 2 failed (result=), retrying 2 ...
[2019-02-14 10:14:29] I2C read 0x01 0x08 2 failed (result=), retrying 3 ...
[2019-02-14 10:14:30] I2C read 0x01 0x08 2 failed (result=), and no more retry.
[2019-02-14 10:14:30] Current Vin=V, Vout=V, Iout=A
[2019-02-14 10:14:32] I2C read 0x01 0x08 44 failed (result=), retrying 1 ...
[2019-02-14 10:14:34] I2C read 0x01 0x08 44 failed (result=), retrying 2 ...
[2019-02-14 10:14:36] I2C read 0x01 0x08 44 failed (result=), retrying 3 ...
[2019-02-14 10:14:36] I2C read 0x01 0x08 44 failed (result=), and no more retry.
[2019-02-14 10:14:38] I2C read 0x01 0x08 46 failed (result=), retrying 1 ...
[2019-02-14 10:14:40] I2C read 0x01 0x08 46 failed (result=), retrying 2 ...
[2019-02-14 10:14:42] I2C read 0x01 0x08 46 failed (result=), retrying 3 ...
[2019-02-14 10:14:42] I2C read 0x01 0x08 46 failed (result=), and no more retry.
[2019-02-14 10:14:44] I2C read 0x01 0x08 39 failed (result=), retrying 1 ...
[2019-02-14 10:14:46] I2C read 0x01 0x08 39 failed (result=), retrying 2 ...
[2019-02-14 10:14:48] I2C read 0x01 0x08 39 failed (result=), retrying 3 ...
[2019-02-14 10:14:49] I2C read 0x01 0x08 39 failed (result=), and no more retry.
[2019-02-14 10:14:51] I2C read 0x01 0x08 40 failed (result=), retrying 1 ...
[2019-02-14 10:14:52] I2C read 0x01 0x08 40 failed (result=), retrying 2 ...
[2019-02-14 10:14:54] I2C read 0x01 0x08 40 failed (result=), retrying 3 ...
[2019-02-14 10:14:55] I2C read 0x01 0x08 40 failed (result=), and no more retry.
[2019-02-14 10:14:57] I2C read 0x01 0x08 55 failed (result=), retrying 1 ...
[2019-02-14 10:14:58] I2C read 0x01 0x08 55 failed (result=), retrying 2 ...
[2019-02-14 10:15:00] I2C read 0x01 0x08 55 failed (result=), retrying 3 ...
[2019-02-14 10:15:01] I2C read 0x01 0x08 55 failed (result=), and no more retry.
Todays's sunset: 2019-02-14 17:16:43+00:00
Tomorrow's sunrise 2019-02-15 07:19:46+00:00
[2019-02-14 10:15:08] I2C read 0x01 0x08 58 failed (result=), retrying 1 ...
Error: Read failed
[2019-02-14 10:15:10] I2C read 0x01 0x08 58 failed (result=), retrying 1 ...
Error: Read failed
[2019-02-14 10:15:11] I2C read 0x01 0x08 59 failed (result=), retrying 1 ...
[2019-02-14 10:15:12] I2C read 0x01 0x08 58 failed (result=), retrying 2 ...
Error: Read failed
[2019-02-14 10:15:12] I2C read 0x01 0x08 59 failed (result=), retrying 2 ...
[2019-02-14 10:15:13] I2C read 0x01 0x08 58 failed (result=), retrying 3 ...
Error: Read failed
[2019-02-14 10:15:14] I2C read 0x01 0x08 58 failed (result=), and no more retry.
/home/pi/wittypi/utilities.sh: line 194: 0x7F&I2C read 0x01 0x08 58 failed (result=), and no more retry.: syntax error in expression (error token is "read 0x01 0x08 58 failed (result=), and no more retry.")
[2019-02-14 10:15:14] I2C read 0x01 0x08 59 failed (result=), retrying 3 ...
Error: Read failed
[2019-02-14 10:15:16] I2C read 0x01 0x08 59 failed (result=), retrying 1 ...
Error: Read failed
[2019-02-14 10:15:17] I2C read 0x01 0x08 60 failed (result=), retrying 1 ...
[2019-02-14 10:15:18] I2C read 0x01 0x08 59 failed (result=), retrying 2 ...
Error: Read failed
[2019-02-14 10:15:19] I2C read 0x01 0x08 60 failed (result=), retrying 2 ...
[2019-02-14 10:15:20] I2C read 0x01 0x08 59 failed (result=), retrying 3 ...
Error: Read failed
[2019-02-14 10:15:20] I2C read 0x01 0x08 59 failed (result=), and no more retry.
[2019-02-14 10:15:20] I2C read 0x01 0x08 60 failed (result=), retrying 3 ...
Error: Read failed
[2019-02-14 10:15:22] I2C read 0x01 0x08 60 failed (result=), retrying 1 ...
Error: Read failed
[2019-02-14 10:15:23] I2C read 0x01 0x08 61 failed (result=), retrying 1 ...
[2019-02-14 10:15:24] I2C read 0x01 0x08 60 failed (result=), retrying 2 ...
Error: Read failed
[2019-02-14 10:15:25] I2C read 0x01 0x08 61 failed (result=), retrying 2 ...
[2019-02-14 10:15:26] I2C read 0x01 0x08 60 failed (result=), retrying 3 ...
Error: Read failed
[2019-02-14 10:15:26] I2C read 0x01 0x08 60 failed (result=), and no more retry.
[2019-02-14 10:15:27] I2C read 0x01 0x08 61 failed (result=), retrying 3 ...
Error: Read failed
[2019-02-14 10:15:28] I2C read 0x01 0x08 61 failed (result=), retrying 1 ...
Error: Read failed
[2019-02-14 10:15:29] I2C read 0x01 0x08 63 failed (result=), retrying 1 ...
[2019-02-14 10:15:30] I2C read 0x01 0x08 61 failed (result=), retrying 2 ...
Error: Read failed
[2019-02-14 10:15:31] I2C read 0x01 0x08 63 failed (result=), retrying 2 ...
[2019-02-14 10:15:32] I2C read 0x01 0x08 61 failed (result=), retrying 3 ...
Error: Read failed
[2019-02-14 10:15:33] I2C read 0x01 0x08 61 failed (result=), and no more retry.
[2019-02-14 10:15:33] I2C read 0x01 0x08 63 failed (result=), retrying 3 ...
Error: Read failed
[2019-02-14 10:15:34] I2C read 0x01 0x08 63 failed (result=), retrying 1 ...
Error: Read failed
[2019-02-14 10:15:35] I2C read 0x01 0x08 64 failed (result=), retrying 1 ...
[2019-02-14 10:15:36] I2C read 0x01 0x08 63 failed (result=), retrying 2 ...
Error: Read failed
[2019-02-14 10:15:37] I2C read 0x01 0x08 64 failed (result=), retrying 2 ...
[2019-02-14 10:15:38] I2C read 0x01 0x08 63 failed (result=), retrying 3 ...
Error: Read failed
[2019-02-14 10:15:39] I2C read 0x01 0x08 63 failed (result=), and no more retry.
[2019-02-14 10:15:39] I2C read 0x01 0x08 64 failed (result=), retrying 3 ...
Error: Read failed
[2019-02-14 10:15:41] I2C read 0x01 0x08 64 failed (result=), retrying 1 ...
Error: Read failed
[2019-02-14 10:15:42] I2C read 0x01 0x08 27 failed (result=), retrying 1 ...
[2019-02-14 10:15:42] I2C read 0x01 0x08 64 failed (result=), retrying 2 ...
Error: Read failed
[2019-02-14 10:15:43] I2C read 0x01 0x08 27 failed (result=), retrying 2 ...
[2019-02-14 10:15:44] I2C read 0x01 0x08 64 failed (result=), retrying 3 ...
Error: Read failed
[2019-02-14 10:15:45] I2C read 0x01 0x08 64 failed (result=), and no more retry.
date: invalid date ‘0-0-0 0:0:’
--------------- 2019-02-14 10:15:45 ---------------
[2019-02-14 10:15:45] I2C read 0x01 0x08 27 failed (result=), retrying 3 ...
[2019-02-14 10:15:46] I2C read 0x01 0x08 27 failed (result=), and no more retry.
Error: Read failed
[2019-02-14 10:15:48] I2C read 0x01 0x08 28 failed (result=), retrying 1 ...
Error: Read failed
[2019-02-14 10:15:49] I2C read 0x01 0x08 29 failed (result=), retrying 1 ...
[2019-02-14 10:15:49] I2C read 0x01 0x08 28 failed (result=), retrying 2 ...
Error: Read failed
[2019-02-14 10:15:50] I2C read 0x01 0x08 29 failed (result=), retrying 2 ...
[2019-02-14 10:15:51] I2C read 0x01 0x08 28 failed (result=), retrying 3 ...
Error: Read failed
[2019-02-14 10:15:52] I2C read 0x01 0x08 28 failed (result=), and no more retry.
[2019-02-14 10:15:52] I2C read 0x01 0x08 29 failed (result=), retrying 3 ...
Error: Read failed
[2019-02-14 10:15:54] I2C read 0x01 0x08 29 failed (result=), retrying 1 ...
Error: Read failed
[2019-02-14 10:15:55] I2C read 0x01 0x08 30 failed (result=), retrying 1 ...
[2019-02-14 10:15:56] I2C read 0x01 0x08 29 failed (result=), retrying 2 ...
Error: Read failed
[2019-02-14 10:15:56] I2C read 0x01 0x08 30 failed (result=), retrying 2 ...
[2019-02-14 10:15:57] I2C read 0x01 0x08 29 failed (result=), retrying 3 ...
Error: Read failed
[2019-02-14 10:15:58] I2C read 0x01 0x08 29 failed (result=), and no more retry.
[2019-02-14 10:15:58] I2C read 0x01 0x08 30 failed (result=), retrying 3 ...
Error: Read failed
[2019-02-14 10:16:00] I2C read 0x01 0x08 30 failed (result=), retrying 1 ...
Error: Read failed
[2019-02-14 10:16:01] I2C read 0x01 0x08 32 failed (result=), retrying 1 ...
[2019-02-14 10:16:02] I2C read 0x01 0x08 30 failed (result=), retrying 2 ...
Error: Read failed
[2019-02-14 10:16:03] I2C read 0x01 0x08 32 failed (result=), retrying 2 ...
[2019-02-14 10:16:04] I2C read 0x01 0x08 30 failed (result=), retrying 3 ...
Error: Read failed
[2019-02-14 10:16:04] I2C read 0x01 0x08 30 failed (result=), and no more retry.
[2019-02-14 10:16:04] I2C read 0x01 0x08 32 failed (result=), retrying 3 ...
Error: Read failed
[2019-02-14 10:16:06] I2C read 0x01 0x08 32 failed (result=), retrying 1 ...
Error: Read failed
[2019-02-14 10:16:07] I2C read 0x01 0x08 33 failed (result=), retrying 1 ...
[2019-02-14 10:16:08] I2C read 0x01 0x08 32 failed (result=), retrying 2 ...
Error: Read failed
[2019-02-14 10:16:09] I2C read 0x01 0x08 33 failed (result=), retrying 2 ...
[2019-02-14 10:16:10] I2C read 0x01 0x08 32 failed (result=), retrying 3 ...
Error: Read failed
[2019-02-14 10:16:10] I2C read 0x01 0x08 32 failed (result=), and no more retry.
[2019-02-14 10:16:11] I2C read 0x01 0x08 33 failed (result=), retrying 3 ...
Error: Read failed
[2019-02-14 10:16:12] I2C read 0x01 0x08 33 failed (result=), retrying 1 ...
Error: Read failed
[2019-02-14 10:16:13] I2C read 0x01 0x08 34 failed (result=), retrying 1 ...
[2019-02-14 10:16:14] I2C read 0x01 0x08 33 failed (result=), retrying 2 ...
Error: Read failed
[2019-02-14 10:16:15] I2C read 0x01 0x08 34 failed (result=), retrying 2 ...
[2019-02-14 10:16:16] I2C read 0x01 0x08 33 failed (result=), retrying 3 ...
Error: Read failed
[2019-02-14 10:16:17] I2C read 0x01 0x08 33 failed (result=), and no more retry.
[2019-02-14 10:16:17] I2C read 0x01 0x08 34 failed (result=), retrying 3 ...
Error: Read failed
[2019-02-14 10:16:19] I2C read 0x01 0x08 34 failed (result=), retrying 1 ...
Error: Read failed
[2019-02-14 10:16:19] I2C read 0x01 0x08 35 failed (result=), retrying 1 ...
[2019-02-14 10:16:20] I2C read 0x01 0x08 34 failed (result=), retrying 2 ...
Error: Read failed
[2019-02-14 10:16:21] I2C read 0x01 0x08 35 failed (result=), retrying 2 ...
[2019-02-14 10:16:22] I2C read 0x01 0x08 34 failed (result=), retrying 3 ...
Error: Read failed
[2019-02-14 10:16:23] I2C read 0x01 0x08 34 failed (result=), and no more retry.
[2019-02-14 10:16:23] I2C read 0x01 0x08 35 failed (result=), retrying 3 ...
Error: Read failed
[2019-02-14 10:16:25] I2C read 0x01 0x08 35 failed (result=), retrying 1 ...
Error: Read failed
[2019-02-14 10:16:26] I2C read 0x01 0x08 58 failed (result=), retrying 1 ...
[2019-02-14 10:16:26] I2C read 0x01 0x08 35 failed (result=), retrying 2 ...
Error: Read failed
[2019-02-14 10:16:27] I2C read 0x01 0x08 58 failed (result=), retrying 2 ...
[2019-02-14 10:16:28] I2C read 0x01 0x08 35 failed (result=), retrying 3 ...
Error: Read failed
[2019-02-14 10:16:29] I2C read 0x01 0x08 35 failed (result=), and no more retry.
[2019-02-14 10:16:29] I2C read 0x01 0x08 58 failed (result=), retrying 3 ...
Error: Read failed
[2019-02-14 10:16:31] I2C read 0x01 0x08 58 failed (result=), retrying 1 ...
Error: Read failed
[2019-02-14 10:16:32] I2C read 0x01 0x08 59 failed (result=), retrying 1 ...
[2019-02-14 10:16:33] I2C read 0x01 0x08 58 failed (result=), retrying 2 ...
Error: Read failed
[2019-02-14 10:16:33] I2C read 0x01 0x08 59 failed (result=), retrying 2 ...
[2019-02-14 10:16:34] I2C read 0x01 0x08 58 failed (result=), retrying 3 ...
Error: Read failed
[2019-02-14 10:16:35] I2C read 0x01 0x08 58 failed (result=), and no more retry.
/home/pi/wittypi/utilities.sh: line 194: 0x7F&I2C read 0x01 0x08 58 failed (result=), and no more retry.: syntax error in expression (error token is "read 0x01 0x08 58 failed (result=), and no more retry.")
[2019-02-14 10:16:35] I2C read 0x01 0x08 59 failed (result=), retrying 3 ...
Error: Read failed
[2019-02-14 10:16:37] I2C read 0x01 0x08 59 failed (result=), retrying 1 ...
Error: Read failed
[2019-02-14 10:16:38] I2C read 0x01 0x08 60 failed (result=), retrying 1 ...
[2019-02-14 10:16:39] I2C read 0x01 0x08 59 failed (result=), retrying 2 ...
Error: Read failed
[2019-02-14 10:16:40] I2C read 0x01 0x08 60 failed (result=), retrying 2 ...
[2019-02-14 10:16:41] I2C read 0x01 0x08 59 failed (result=), retrying 3 ...
Error: Read failed
[2019-02-14 10:16:41] I2C read 0x01 0x08 59 failed (result=), and no more retry.
[2019-02-14 10:16:41] I2C read 0x01 0x08 60 failed (result=), retrying 3 ...
Error: Read failed
[2019-02-14 10:16:43] I2C read 0x01 0x08 60 failed (result=), retrying 1 ...
Error: Read failed
[2019-02-14 10:16:44] I2C read 0x01 0x08 61 failed (result=), retrying 1 ...
[2019-02-14 10:16:45] I2C read 0x01 0x08 60 failed (result=), retrying 2 ...
Error: Read failed
[2019-02-14 10:16:46] I2C read 0x01 0x08 61 failed (result=), retrying 2 ...
[2019-02-14 10:16:47] I2C read 0x01 0x08 60 failed (result=), retrying 3 ...
Error: Read failed
[2019-02-14 10:16:47] I2C read 0x01 0x08 60 failed (result=), and no more retry.
[2019-02-14 10:16:48] I2C read 0x01 0x08 61 failed (result=), retrying 3 ...
Error: Read failed
[2019-02-14 10:16:49] I2C read 0x01 0x08 61 failed (result=), retrying 1 ...
Error: Read failed
[2019-02-14 10:16:50] I2C read 0x01 0x08 63 failed (result=), retrying 1 ...
[2019-02-14 10:16:51] I2C read 0x01 0x08 61 failed (result=), retrying 2 ...
Error: Read failed
[2019-02-14 10:16:52] I2C read 0x01 0x08 63 failed (result=), retrying 2 ...
[2019-02-14 10:16:53] I2C read 0x01 0x08 61 failed (result=), retrying 3 ...
Error: Read failed
[2019-02-14 10:16:54] I2C read 0x01 0x08 61 failed (result=), and no more retry.
[2019-02-14 10:16:54] I2C read 0x01 0x08 63 failed (result=), retrying 3 ...
Error: Read failed
[2019-02-14 10:16:55] I2C read 0x01 0x08 63 failed (result=), retrying 1 ...
Error: Read failed
[2019-02-14 10:16:56] I2C read 0x01 0x08 64 failed (result=), retrying 1 ...
[2019-02-14 10:16:57] I2C read 0x01 0x08 63 failed (result=), retrying 2 ...
Error: Read failed
[2019-02-14 10:16:58] I2C read 0x01 0x08 64 failed (result=), retrying 2 ...
[2019-02-14 10:16:59] I2C read 0x01 0x08 63 failed (result=), retrying 3 ...
Error: Read failed
[2019-02-14 10:17:00] I2C read 0x01 0x08 63 failed (result=), and no more retry.
[2019-02-14 10:17:00] I2C read 0x01 0x08 64 failed (result=), retrying 3 ...
Error: Read failed
[2019-02-14 10:17:01] [Warning] System and RTC time seems not synchronized, difference is 1550139421s. System time is "2019-02-14 10:17:01 GMT", while RTC time is "". Please synchronize the time first.
[2019-02-14 10:17:01] Schedule next shutdown at: 2019-02-15 12:10:00
[2019-02-14 10:17:02] I2C read 0x01 0x08 64 failed (result=), retrying 1 ...
date: invalid date ‘165-0-0 0:0:’
date: invalid date ‘@’
[Warning] System and RTC time seems not synchronized, difference is 1550139422s.
System time is "2019-02-14 10:17:02 GMT", while RTC time is "".
Please synchronize the time first.
[2019-02-14 10:17:02] [Warning] System and RTC time seems not synchronized, difference is 1550139422s. System time is "2019-02-14 10:17:02 GMT", while RTC time is "". Please synchronize the time first.
Schedule next shutdown at: 2019-02-15 12:10:00
[2019-02-14 10:17:02] Schedule next shutdown at: 2019-02-15 12:10:00
Error: Write failed
[2019-02-14 10:17:03] I2C read 0x01 0x08 32 failed (result=), retrying 1 ...
Error: Read failed
[2019-02-14 10:17:05] I2C read 0x01 0x08 32 failed (result=), retrying 1 ...
[2019-02-14 10:17:05] I2C write 0x01 0x08 32 0 failed (result=0xff), retrying 1 ...
Error: Read failed
[2019-02-14 10:17:07] I2C read 0x01 0x08 32 failed (result=), retrying 2 ...
Error: Read failed
[2019-02-14 10:17:08] I2C read 0x01 0x08 32 failed (result=), retrying 1 ...
[2019-02-14 10:17:09] I2C read 0x01 0x08 32 failed (result=), retrying 3 ...
Error: Read failed
[2019-02-14 10:17:09] I2C read 0x01 0x08 32 failed (result=), and no more retry.
[2019-02-14 10:17:10] I2C read 0x01 0x08 32 failed (result=), retrying 2 ...
[2019-02-14 10:17:10] I2C write 0x01 0x08 32 0 failed (result=I2C read 0x01 0x08 32 failed (result=), and no more retry.), retrying 1 ...
Error: Write failed
[2019-02-14 10:17:11] I2C read 0x01 0x08 32 failed (result=), retrying 3 ...
Error: Read failed
[2019-02-14 10:17:13] I2C read 0x01 0x08 32 failed (result=), retrying 1 ...
[2019-02-14 10:17:13] I2C write 0x01 0x08 32 0 failed (result=0xff), retrying 2 ...
Error: Read failed
[2019-02-14 10:17:15] I2C read 0x01 0x08 32 failed (result=), retrying 2 ...
Error: Read failed
[2019-02-14 10:17:16] I2C read 0x01 0x08 32 failed (result=), retrying 1 ...
[2019-02-14 10:17:17] I2C read 0x01 0x08 32 failed (result=), retrying 3 ...
Error: Read failed
[2019-02-14 10:17:17] I2C read 0x01 0x08 32 failed (result=), and no more retry.
[2019-02-14 10:17:17] I2C read 0x01 0x08 32 failed (result=), retrying 2 ...
[2019-02-14 10:17:18] I2C write 0x01 0x08 32 0 failed (result=I2C read 0x01 0x08 32 failed (result=), and no more retry.), retrying 2 ...
Error: Write failed
[2019-02-14 10:17:19] I2C read 0x01 0x08 32 failed (result=), retrying 3 ...
Error: Read failed
[2019-02-14 10:17:21] I2C read 0x01 0x08 32 failed (result=), retrying 1 ...
[2019-02-14 10:17:21] I2C write 0x01 0x08 32 0 failed (result=0xff), retrying 3 ...
Error: Read failed
[2019-02-14 10:17:23] I2C read 0x01 0x08 32 failed (result=), retrying 2 ...
Error: Read failed
[2019-02-14 10:17:24] I2C read 0x01 0x08 32 failed (result=), retrying 1 ...
[2019-02-14 10:17:25] I2C read 0x01 0x08 32 failed (result=), retrying 3 ...
Error: Read failed
[2019-02-14 10:17:25] I2C read 0x01 0x08 32 failed (result=), and no more retry.
[2019-02-14 10:17:25] I2C read 0x01 0x08 32 failed (result=), retrying 2 ...
[2019-02-14 10:17:26] I2C write 0x01 0x08 32 0 failed (result=I2C read 0x01 0x08 32 failed (result=), and no more retry.), retrying 3 ...
Error: Write failed
[2019-02-14 10:17:27] I2C read 0x01 0x08 32 failed (result=), retrying 3 ...
Error: Read failed
[2019-02-14 10:17:28] I2C write 0x01 0x08 32 0 failed (result=0xff), and no more retry.
[2019-02-14 10:17:29] I2C read 0x01 0x08 32 failed (result=), retrying 1 ...
I2C write 0x01 0x08 32 0 failed (result=0xff), and no more retry.
[2019-02-14 10:17:30] I2C write 0x01 0x08 32 0 failed (result=0xff), and no more retry.
Error: Write failed
[2019-02-14 10:17:31] I2C read 0x01 0x08 33 failed (result=), retrying 1 ...
Error: Read failed
[2019-02-14 10:17:32] I2C read 0x01 0x08 33 failed (result=), retrying 1 ...
[2019-02-14 10:17:32] I2C write 0x01 0x08 33 16 failed (result=0xff), retrying 1 ...
Error: Read failed
[2019-02-14 10:17:34] I2C read 0x01 0x08 33 failed (result=), retrying 2 ...
Error: Read failed
[2019-02-14 10:17:35] I2C read 0x01 0x08 33 failed (result=), retrying 1 ...
[2019-02-14 10:17:36] I2C read 0x01 0x08 33 failed (result=), retrying 3 ...
Error: Read failed
[2019-02-14 10:17:37] I2C read 0x01 0x08 33 failed (result=), and no more retry.
[2019-02-14 10:17:37] I2C read 0x01 0x08 33 failed (result=), retrying 2 ...
[2019-02-14 10:17:38] I2C write 0x01 0x08 33 16 failed (result=I2C read 0x01 0x08 33 failed (result=), and no more retry.), retrying 1 ...
Error: Write failed
[2019-02-14 10:17:39] I2C read 0x01 0x08 33 failed (result=), retrying 3 ...
Error: Read failed
[2019-02-14 10:17:40] I2C read 0x01 0x08 33 failed (result=), retrying 1 ...
[2019-02-14 10:17:40] I2C write 0x01 0x08 33 16 failed (result=0xff), retrying 2 ...
Error: Read failed
[2019-02-14 10:17:42] I2C read 0x01 0x08 33 failed (result=), retrying 2 ...
Error: Read failed
[2019-02-14 10:17:43] I2C read 0x01 0x08 33 failed (result=), retrying 1 ...
[2019-02-14 10:17:44] I2C read 0x01 0x08 33 failed (result=), retrying 3 ...
Error: Read failed
[2019-02-14 10:17:45] I2C read 0x01 0x08 33 failed (result=), and no more retry.
[2019-02-14 10:17:45] I2C read 0x01 0x08 33 failed (result=), retrying 2 ...
[2019-02-14 10:17:46] I2C write 0x01 0x08 33 16 failed (result=I2C read 0x01 0x08 33 failed (result=), and no more retry.), retrying 2 ...
Error: Write failed
[2019-02-14 10:17:47] I2C read 0x01 0x08 33 failed (result=), retrying 3 ...
Error: Read failed
[2019-02-14 10:17:48] I2C read 0x01 0x08 33 failed (result=), retrying 1 ...
[2019-02-14 10:17:48] I2C write 0x01 0x08 33 16 failed (result=0xff), retrying 3 ...
Error: Read failed
[2019-02-14 10:17:50] I2C read 0x01 0x08 33 failed (result=), retrying 2 ...
Error: Read failed
[2019-02-14 10:17:51] I2C read 0x01 0x08 33 failed (result=), retrying 1 ...
[2019-02-14 10:17:52] I2C read 0x01 0x08 33 failed (result=), retrying 3 ...
Error: Read failed
[2019-02-14 10:17:53] I2C read 0x01 0x08 33 failed (result=), and no more retry.
[2019-02-14 10:17:53] I2C read 0x01 0x08 33 failed (result=), retrying 2 ...
[2019-02-14 10:17:54] I2C write 0x01 0x08 33 16 failed (result=I2C read 0x01 0x08 33 failed (result=), and no more retry.), retrying 3 ...
Error: Write failed
[2019-02-14 10:17:54] I2C read 0x01 0x08 33 failed (result=), retrying 3 ...
Error: Read failed
[2019-02-14 10:17:55] I2C write 0x01 0x08 33 16 failed (result=0xff), and no more retry.
[2019-02-14 10:17:56] I2C read 0x01 0x08 33 failed (result=), retrying 1 ...
I2C write 0x01 0x08 33 16 failed (result=0xff), and no more retry.
[2019-02-14 10:17:57] I2C write 0x01 0x08 33 16 failed (result=0xff), and no more retry.
Error: Write failed
[2019-02-14 10:17:58] I2C read 0x01 0x08 34 failed (result=), retrying 1 ...
Error: Read failed
[2019-02-14 10:18:00] I2C read 0x01 0x08 34 failed (result=), retrying 1 ...
[2019-02-14 10:18:00] I2C write 0x01 0x08 34 18 failed (result=0xff), retrying 1 ...
Error: Read failed
[2019-02-14 10:18:02] I2C read 0x01 0x08 34 failed (result=), retrying 2 ...
Error: Read failed
[2019-02-14 10:18:02] I2C read 0x01 0x08 34 failed (result=), retrying 1 ...
[2019-02-14 10:18:03] I2C read 0x01 0x08 34 failed (result=), retrying 3 ...
Error: Read failed
[2019-02-14 10:18:04] I2C read 0x01 0x08 34 failed (result=), and no more retry.
[2019-02-14 10:18:04] I2C read 0x01 0x08 34 failed (result=), retrying 2 ...
[2019-02-14 10:18:05] I2C write 0x01 0x08 34 18 failed (result=I2C read 0x01 0x08 34 failed (result=), and no more retry.), retrying 1 ...
Error: Write failed
[2019-02-14 10:18:06] I2C read 0x01 0x08 34 failed (result=), retrying 3 ...
Error: Read failed
[2019-02-14 10:18:08] I2C read 0x01 0x08 34 failed (result=), retrying 1 ...
[2019-02-14 10:18:08] I2C write 0x01 0x08 34 18 failed (result=0xff), retrying 2 ...
Error: Read failed
[2019-02-14 10:18:09] I2C read 0x01 0x08 34 failed (result=), retrying 2 ...
Error: Read failed
[2019-02-14 10:18:10] I2C read 0x01 0x08 34 failed (result=), retrying 1 ...
[2019-02-14 10:18:11] I2C read 0x01 0x08 34 failed (result=), retrying 3 ...
Error: Read failed
[2019-02-14 10:18:12] I2C read 0x01 0x08 34 failed (result=), and no more retry.
[2019-02-14 10:18:12] I2C read 0x01 0x08 34 failed (result=), retrying 2 ...
[2019-02-14 10:18:13] I2C write 0x01 0x08 34 18 failed (result=I2C read 0x01 0x08 34 failed (result=), and no more retry.), retrying 2 ...
Error: Write failed
[2019-02-14 10:18:14] I2C read 0x01 0x08 34 failed (result=), retrying 3 ...
Error: Read failed
[2019-02-14 10:18:15] I2C read 0x01 0x08 34 failed (result=), and no more retry.
[2019-02-14 10:18:16] I2C read 0x01 0x08 34 failed (result=), retrying 1 ...
Error: Read failed
[2019-02-14 10:18:16] I2C write 0x01 0x08 34 18 failed (result=I2C read 0x01 0x08 34 failed (result=), and no more retry.), retrying 3 ...
[2019-02-14 10:18:17] I2C read 0x01 0x08 34 failed (result=), retrying 2 ...
[2019-02-14 10:18:19] I2C read 0x01 0x08 34 failed (result=), retrying 1 ...
[2019-02-14 10:18:19] I2C write 0x01 0x08 34 18 failed (result=0xff), retrying 3 ...
Error: Read failed
[2019-02-14 10:18:21] I2C read 0x01 0x08 34 failed (result=), retrying 2 ...
[2019-02-14 10:18:22] I2C read 0x01 0x08 34 failed (result=), retrying 1 ...
Error: Read failed
[2019-02-14 10:18:23] I2C read 0x01 0x08 34 failed (result=), retrying 3 ...
[2019-02-14 10:18:23] I2C write 0x01 0x08 34 18 failed (result=0xff), and no more retry.
[2019-02-14 10:18:24] I2C read 0x01 0x08 34 failed (result=), retrying 2 ...
I2C write 0x01 0x08 34 18 failed (result=0xff), and no more retry.
[2019-02-14 10:18:24] I2C write 0x01 0x08 34 18 failed (result=0xff), and no more retry.
Error: Read failed
[2019-02-14 10:18:26] I2C read 0x01 0x08 35 failed (result=), retrying 1 ...
[2019-02-14 10:18:27] I2C read 0x01 0x08 35 failed (result=), retrying 1 ...
[2019-02-14 10:18:28] I2C write 0x01 0x08 35 21 failed (result=0xff), retrying 1 ...
